! Anritsu VNA Master:                     Model: MS2036C/10/77
! SN:                                  1601066
! /bd0/18may26.balun/4b.me3.s2p
! Existing Calibration Information:
! TYPE:                         Current Settings,       Active Cal Settings
! TIME:             	   05/26/2018 05:12:17 PM,    05/26/2018 05:08:07 PM
! INTERNAL TEMP:    	                   52.5 C,                    52.5 C
! # POINTS:         	                      500,                       500
! START FREQ:       	               20.000 MHz,                20.000 MHz
! STOP FREQ:        	              120.000 MHz,               120.000 MHz
! SOURCE POWER:     	                     High,                      High
! IFBW:             	                    50 Hz,                     50 Hz
! AVG FACTOR:       	                       1 ,                        1 
! REF PLANE 1:      	                     0 mm,                      0 mm
! REF PLANE 2:      	                     0 mm,                      0 mm
! CAL TYPE:         	                 Full S11,                  Full S11
! CAL METHOD:       	                     SOLT,                      SOLT
! CAL LINE TYPE:    	                     Coax,                      Coax
! DUT PORT 1:       	                K-Conn(M),                 K-Conn(M)
! DUT PORT 2:       	                K-Conn(M),                 K-Conn(M)
! CAL STATUS:       	        OK: Accuracy High,                        --
# GHZ S DB R 50.0
! FREQ.GHZ       S11DB        S11A       S21DB        S21A       S12DB        S12A       S22DB        S22A
  0.020000000   -0.615860 -126.648880  -90.524585   29.118650    0.000000    0.000000    0.000000    0.000000
  0.020200401   -0.612960 -128.148560  -91.448999   28.620045    0.000000    0.000000    0.000000    0.000000
  0.020400802   -0.611639 -129.643173  -91.367991   32.245625    0.000000    0.000000    0.000000    0.000000
  0.020601202   -0.610721 -131.103714  -91.405971   24.767761    0.000000    0.000000    0.000000    0.000000
  0.020801603   -0.615199 -132.598160  -92.135257   31.535120    0.000000    0.000000    0.000000    0.000000
  0.021002004   -0.620381 -134.127731  -92.625615   27.395397    0.000000    0.000000    0.000000    0.000000
  0.021202405   -0.628599 -135.668365  -92.590414   28.567125    0.000000    0.000000    0.000000    0.000000
  0.021402806   -0.633770 -137.193619  -92.815878   29.416348    0.000000    0.000000    0.000000    0.000000
  0.021603206   -0.637467 -138.745560  -93.144349   35.083771    0.000000    0.000000    0.000000    0.000000
  0.021803607   -0.644091 -140.289200  -93.608049   32.434666    0.000000    0.000000    0.000000    0.000000
  0.022004008   -0.651240 -141.852600  -93.195038   37.158131    0.000000    0.000000    0.000000    0.000000
  0.022204409   -0.654314 -143.428452  -92.952318   33.312035    0.000000    0.000000    0.000000    0.000000
  0.022404810   -0.654994 -145.024216  -92.829298   36.578339    0.000000    0.000000    0.000000    0.000000
  0.022605210   -0.656825 -146.594193  -93.629001   33.908939    0.000000    0.000000    0.000000    0.000000
  0.022805611   -0.659598 -148.176285  -92.847930   34.345387    0.000000    0.000000    0.000000    0.000000
  0.023006012   -0.662185 -149.757965  -92.822591   27.943968    0.000000    0.000000    0.000000    0.000000
  0.023206413   -0.669853 -151.354095  -93.069306   35.577354    0.000000    0.000000    0.000000    0.000000
  0.023406814   -0.680403 -152.960190  -92.273933   28.015505    0.000000    0.000000    0.000000    0.000000
  0.023607214   -0.686824 -154.595886  -92.782173   29.762310    0.000000    0.000000    0.000000    0.000000
  0.023807615   -0.695996 -156.235275  -92.751610   28.885477    0.000000    0.000000    0.000000    0.000000
  0.024008016   -0.704397 -157.854599  -92.743065   21.585312    0.000000    0.000000    0.000000    0.000000
  0.024208417   -0.713376 -159.493027  -93.159487   27.309181    0.000000    0.000000    0.000000    0.000000
  0.024408818   -0.727795 -161.132416  -93.855621   21.513327    0.000000    0.000000    0.000000    0.000000
  0.024609218   -0.739097 -162.817413  -94.013245   19.130569    0.000000    0.000000    0.000000    0.000000
  0.024809619   -0.746435 -164.510300  -94.573751   21.709295    0.000000    0.000000    0.000000    0.000000
  0.025010020   -0.752329 -166.208847  -93.893969   17.776861    0.000000    0.000000    0.000000    0.000000
  0.025210421   -0.762057 -167.894653  -94.963229   21.211161    0.000000    0.000000    0.000000    0.000000
  0.025410822   -0.772546 -169.594238  -94.949390   16.595970    0.000000    0.000000    0.000000    0.000000
  0.025611222   -0.782440 -171.289001  -94.991891   25.039881    0.000000    0.000000    0.000000    0.000000
  0.025811623   -0.793883 -173.015717  -95.048710   18.834448    0.000000    0.000000    0.000000    0.000000
  0.026012024   -0.804951 -174.747055  -95.979007   21.586506    0.000000    0.000000    0.000000    0.000000
  0.026212425   -0.820641 -176.489609  -94.963849   23.356396    0.000000    0.000000    0.000000    0.000000
  0.026412826   -0.837174 -178.241043  -96.457259   18.319622    0.000000    0.000000    0.000000    0.000000
  0.026613226   -0.853832  179.998383  -96.592387   24.543982    0.000000    0.000000    0.000000    0.000000
  0.026813627   -0.870646  178.220779  -96.206201   17.656738    0.000000    0.000000    0.000000    0.000000
  0.027014028   -0.884617  176.453995  -95.633847   24.379091    0.000000    0.000000    0.000000    0.000000
  0.027214429   -0.898538  174.690506  -95.351681   24.511034    0.000000    0.000000    0.000000    0.000000
  0.027414830   -0.914798  172.917053  -95.177939   27.041958    0.000000    0.000000    0.000000    0.000000
  0.027615230   -0.933164  171.127365  -95.268789   23.907248    0.000000    0.000000    0.000000    0.000000
  0.027815631   -0.953733  169.317261  -95.286272   21.579853    0.000000    0.000000    0.000000    0.000000
  0.028016032   -0.974672  167.471985  -95.321969   23.605051    0.000000    0.000000    0.000000    0.000000
  0.028216433   -0.993676  165.622116  -96.234948   18.671501    0.000000    0.000000    0.000000    0.000000
  0.028416834   -1.015334  163.774612  -95.888125   13.827900    0.000000    0.000000    0.000000    0.000000
  0.028617234   -1.035532  161.923782  -95.923867   18.363251    0.000000    0.000000    0.000000    0.000000
  0.028817635   -1.061532  160.050629  -95.691189   10.186202    0.000000    0.000000    0.000000    0.000000
  0.029018036   -1.086329  158.151291  -96.791890   13.166006    0.000000    0.000000    0.000000    0.000000
  0.029218437   -1.110114  156.232758  -96.107706   11.143251    0.000000    0.000000    0.000000    0.000000
  0.029418838   -1.130252  154.322632  -97.263996   18.064339    0.000000    0.000000    0.000000    0.000000
  0.029619238   -1.151931  152.435822  -97.835056   10.741243    0.000000    0.000000    0.000000    0.000000
  0.029819639   -1.174824  150.542709  -97.931157   12.505016    0.000000    0.000000    0.000000    0.000000
  0.030020040   -1.199534  148.657303  -97.899266   10.584558    0.000000    0.000000    0.000000    0.000000
  0.030220441   -1.226756  146.755096  -98.040225   14.881201    0.000000    0.000000    0.000000    0.000000
  0.030420842   -1.262154  144.863281  -97.626828   14.925954    0.000000    0.000000    0.000000    0.000000
  0.030621242   -1.302628  142.896683  -97.138602   16.352598    0.000000    0.000000    0.000000    0.000000
  0.030821643   -1.338912  140.906097  -97.275380   16.426580    0.000000    0.000000    0.000000    0.000000
  0.031022044   -1.370289  138.884171  -97.251640   17.598619    0.000000    0.000000    0.000000    0.000000
  0.031222445   -1.396730  136.874313  -97.828247   13.482404    0.000000    0.000000    0.000000    0.000000
  0.031422846   -1.425092  134.839310  -97.443435    8.714104    0.000000    0.000000    0.000000    0.000000
  0.031623246   -1.451344  132.838135  -97.319418    9.829197    0.000000    0.000000    0.000000    0.000000
  0.031823647   -1.471571  130.841843  -97.715904   10.729814    0.000000    0.000000    0.000000    0.000000
  0.032024048   -1.494989  128.868439  -97.681326   15.646075    0.000000    0.000000    0.000000    0.000000
  0.032224449   -1.524306  126.923492  -97.812576   11.622518    0.000000    0.000000    0.000000    0.000000
  0.032424850   -1.553382  124.955139  -98.088816   13.148426    0.000000    0.000000    0.000000    0.000000
  0.032625251   -1.589970  122.990120  -97.851130   12.260232    0.000000    0.000000    0.000000    0.000000
  0.032825651   -1.628990  121.031799  -97.853326    8.100453    0.000000    0.000000    0.000000    0.000000
  0.033026052   -1.673264  119.062370  -98.198239   11.106890    0.000000    0.000000    0.000000    0.000000
  0.033226453   -1.720131  117.055412  -98.223031    7.959594    0.000000    0.000000    0.000000    0.000000
  0.033426854   -1.766108  115.028351  -97.914700   10.292894    0.000000    0.000000    0.000000    0.000000
  0.033627255   -1.811960  112.973228  -97.504072    3.604321    0.000000    0.000000    0.000000    0.000000
  0.033827655   -1.857090  110.878365  -98.114184    8.312757    0.000000    0.000000    0.000000    0.000000
  0.034028056   -1.901270  108.779663  -99.042747    6.969479    0.000000    0.000000    0.000000    0.000000
  0.034228457   -1.946955  106.682793  -99.053451    7.358890    0.000000    0.000000    0.000000    0.000000
  0.034428858   -1.990023  104.580872  -98.575442   14.093327    0.000000    0.000000    0.000000    0.000000
  0.034629259   -2.029468  102.485931 -100.040111    8.962312    0.000000    0.000000    0.000000    0.000000
  0.034829659   -2.065581  100.414421  -98.995920    6.293746    0.000000    0.000000    0.000000    0.000000
  0.035030060   -2.101984   98.366707  -99.003882   17.658968    0.000000    0.000000    0.000000    0.000000
  0.035230461   -2.147909   96.387268  -98.184478   12.371505    0.000000    0.000000    0.000000    0.000000
  0.035430862   -2.199121   94.362923 -100.563521    4.936271    0.000000    0.000000    0.000000    0.000000
  0.035631263   -2.258057   92.321739  -99.073542    8.810750    0.000000    0.000000    0.000000    0.000000
  0.035831663   -2.317437   90.238243  -98.405757   14.509187    0.000000    0.000000    0.000000    0.000000
  0.036032064   -2.373154   88.128784  -98.811703   10.452655    0.000000    0.000000    0.000000    0.000000
  0.036232465   -2.435064   85.969650  -98.739647   12.246441    0.000000    0.000000    0.000000    0.000000
  0.036432866   -2.490487   83.802132  -98.821190    6.184567    0.000000    0.000000    0.000000    0.000000
  0.036633267   -2.539618   81.628113  -98.914013    7.059756    0.000000    0.000000    0.000000    0.000000
  0.036833667   -2.587158   79.439865  -99.963390    6.836771    0.000000    0.000000    0.000000    0.000000
  0.037034068   -2.632526   77.313133  -98.631587    5.234921    0.000000    0.000000    0.000000    0.000000
  0.037234469   -2.675442   75.174431  -99.536999   -0.088341    0.000000    0.000000    0.000000    0.000000
  0.037434870   -2.714860   73.077698  -98.960442    1.915994    0.000000    0.000000    0.000000    0.000000
  0.037635271   -2.759821   71.004227  -99.489577   -2.260876    0.000000    0.000000    0.000000    0.000000
  0.037835671   -2.809400   68.918037  -99.595157    2.311757    0.000000    0.000000    0.000000    0.000000
  0.038036072   -2.862552   66.856743 -101.598482    4.830006    0.000000    0.000000    0.000000    0.000000
  0.038236473   -2.917459   64.799088 -100.807005   13.459523    0.000000    0.000000    0.000000    0.000000
  0.038436874   -2.977028   62.724331 -100.265157    8.571240    0.000000    0.000000    0.000000    0.000000
  0.038637275   -3.038694   60.643150 -100.662896   -9.245656    0.000000    0.000000    0.000000    0.000000
  0.038837675   -3.098447   58.510639 -100.981388   10.665434    0.000000    0.000000    0.000000    0.000000
  0.039038076   -3.158188   56.348312 -100.071501    9.768514    0.000000    0.000000    0.000000    0.000000
  0.039238477   -3.212813   54.183567 -100.688144   11.146655    0.000000    0.000000    0.000000    0.000000
  0.039438878   -3.258973   52.036129 -100.238083    9.009076    0.000000    0.000000    0.000000    0.000000
  0.039639279   -3.300816   49.930252 -102.243889   14.217340    0.000000    0.000000    0.000000    0.000000
  0.039839679   -3.340851   47.874149 -100.925452    5.620167    0.000000    0.000000    0.000000    0.000000
  0.040040080   -3.383918   45.862850 -100.419088   16.151068    0.000000    0.000000    0.000000    0.000000
  0.040240481   -3.433741   43.862152  -99.738952   -1.694155    0.000000    0.000000    0.000000    0.000000
  0.040440882   -3.487816   41.853622 -100.377570    6.566873    0.000000    0.000000    0.000000    0.000000
  0.040641283   -3.544550   39.817188  -99.389295   19.231701    0.000000    0.000000    0.000000    0.000000
  0.040841683   -3.604341   37.775700 -100.601509    5.423504    0.000000    0.000000    0.000000    0.000000
  0.041042084   -3.660129   35.730640  -99.753146    2.284790    0.000000    0.000000    0.000000    0.000000
  0.041242485   -3.715508   33.705452  -99.551487  -13.992139    0.000000    0.000000    0.000000    0.000000
  0.041442886   -3.768012   31.651093 -100.786410    7.296536    0.000000    0.000000    0.000000    0.000000
  0.041643287   -3.820305   29.589972 -100.428295   -2.217219    0.000000    0.000000    0.000000    0.000000
  0.041843687   -3.871265   27.546217 -100.517320    7.409955    0.000000    0.000000    0.000000    0.000000
  0.042044088   -3.916999   25.504158 -103.396107    2.459349    0.000000    0.000000    0.000000    0.000000
  0.042244489   -3.965432   23.495962 -102.050183    6.415840    0.000000    0.000000    0.000000    0.000000
  0.042444890   -4.011173   21.498791 -101.666383   13.742401    0.000000    0.000000    0.000000    0.000000
  0.042645291   -4.059219   19.504480 -102.920857    1.096635    0.000000    0.000000    0.000000    0.000000
  0.042845691   -4.104289   17.515217 -101.723207    0.842627    0.000000    0.000000    0.000000    0.000000
  0.043046092   -4.148852   15.507570 -102.437979    4.668638    0.000000    0.000000    0.000000    0.000000
  0.043246493   -4.195071   13.526556 -104.036490    7.266496    0.000000    0.000000    0.000000    0.000000
  0.043446894   -4.238464   11.524279 -101.380551   11.313832    0.000000    0.000000    0.000000    0.000000
  0.043647295   -4.285602    9.567323 -102.722491    7.672313    0.000000    0.000000    0.000000    0.000000
  0.043847695   -4.331543    7.600189 -101.137087    5.889082    0.000000    0.000000    0.000000    0.000000
  0.044048096   -4.374704    5.623055 -100.104881   14.116978    0.000000    0.000000    0.000000    0.000000
  0.044248497   -4.416982    3.664580 -101.109971    8.784890    0.000000    0.000000    0.000000    0.000000
  0.044448898   -4.451684    1.710151 -100.832966   15.286961    0.000000    0.000000    0.000000    0.000000
  0.044649299   -4.491319   -0.229358 -102.226344   16.656237    0.000000    0.000000    0.000000    0.000000
  0.044849699   -4.529454   -2.149346 -101.612794    7.320922    0.000000    0.000000    0.000000    0.000000
  0.045050100   -4.566553   -4.031217 -100.632808   10.055952    0.000000    0.000000    0.000000    0.000000
  0.045250501   -4.604644   -5.953179 -100.448324    5.940676    0.000000    0.000000    0.000000    0.000000
  0.045450902   -4.641197   -7.843902 -101.439794   13.864501    0.000000    0.000000    0.000000    0.000000
  0.045651303   -4.678722   -9.743895 -101.250919   10.179101    0.000000    0.000000    0.000000    0.000000
  0.045851703   -4.709860  -11.633771 -100.842152   -6.090964    0.000000    0.000000    0.000000    0.000000
  0.046052104   -4.742869  -13.491937 -100.920943    6.217871    0.000000    0.000000    0.000000    0.000000
  0.046252505   -4.775764  -15.361117 -104.301998   -2.885609    0.000000    0.000000    0.000000    0.000000
  0.046452906   -4.805069  -17.187387 -102.008011    8.114757    0.000000    0.000000    0.000000    0.000000
  0.046653307   -4.836648  -18.997343 -102.965488   16.786486    0.000000    0.000000    0.000000    0.000000
  0.046853707   -4.867485  -20.824772 -102.854967    0.000377    0.000000    0.000000    0.000000    0.000000
  0.047054108   -4.898442  -22.628286 -101.908633    6.425073    0.000000    0.000000    0.000000    0.000000
  0.047254509   -4.926593  -24.426260 -101.285866   -3.071739    0.000000    0.000000    0.000000    0.000000
  0.047454910   -4.956200  -26.225296 -102.682110    2.372451    0.000000    0.000000    0.000000    0.000000
  0.047655311   -4.982389  -28.029589 -105.193268   14.685732    0.000000    0.000000    0.000000    0.000000
  0.047855711   -5.010937  -29.797609 -102.926844   19.834177    0.000000    0.000000    0.000000    0.000000
  0.048056112   -5.040427  -31.565435 -103.188285    0.127418    0.000000    0.000000    0.000000    0.000000
  0.048256513   -5.066097  -33.329521 -103.825813    7.671266    0.000000    0.000000    0.000000    0.000000
  0.048456914   -5.089827  -35.115921 -104.175488    2.542173    0.000000    0.000000    0.000000    0.000000
  0.048657315   -5.110329  -36.883808 -103.250593    3.894097    0.000000    0.000000    0.000000    0.000000
  0.048857715   -5.130522  -38.620155 -103.560123    7.096584    0.000000    0.000000    0.000000    0.000000
  0.049058116   -5.146208  -40.328201 -103.484696    8.394206    0.000000    0.000000    0.000000    0.000000
  0.049258517   -5.169424  -41.994354 -102.872225    4.265643    0.000000    0.000000    0.000000    0.000000
  0.049458918   -5.190617  -43.652409 -101.082132   -4.113341    0.000000    0.000000    0.000000    0.000000
  0.049659319   -5.211543  -45.319946 -102.514278    5.949449    0.000000    0.000000    0.000000    0.000000
  0.049859719   -5.238180  -47.008755 -102.661613   11.364370    0.000000    0.000000    0.000000    0.000000
  0.050060120   -5.262034  -48.658443 -102.401404   -0.436483    0.000000    0.000000    0.000000    0.000000
  0.050260521   -5.286167  -50.380554 -100.288586   -3.461960    0.000000    0.000000    0.000000    0.000000
  0.050460922   -5.312767  -52.047840 -101.558358   -4.956182    0.000000    0.000000    0.000000    0.000000
  0.050661323   -5.329690  -53.716660 -101.318417   -9.630862    0.000000    0.000000    0.000000    0.000000
  0.050861723   -5.347456  -55.385506 -103.222716  -15.034616    0.000000    0.000000    0.000000    0.000000
  0.051062124   -5.361499  -57.066444 -105.094066   -4.267282    0.000000    0.000000    0.000000    0.000000
  0.051262525   -5.373309  -58.691029 -102.103822   -1.203381    0.000000    0.000000    0.000000    0.000000
  0.051462926   -5.383479  -60.298733 -102.110848  -13.418881    0.000000    0.000000    0.000000    0.000000
  0.051663327   -5.398093  -61.885235 -104.194978  -14.082891    0.000000    0.000000    0.000000    0.000000
  0.051863727   -5.412874  -63.424099 -102.431826   -3.678576    0.000000    0.000000    0.000000    0.000000
  0.052064128   -5.428443  -65.010925 -106.075184   -2.582777    0.000000    0.000000    0.000000    0.000000
  0.052264529   -5.441225  -66.557724 -103.367552   15.843965    0.000000    0.000000    0.000000    0.000000
  0.052464930   -5.456758  -68.111183 -104.466867    3.894451    0.000000    0.000000    0.000000    0.000000
  0.052665331   -5.468520  -69.691803 -107.077513   -3.311205    0.000000    0.000000    0.000000    0.000000
  0.052865731   -5.485898  -71.212723 -103.933145   23.266970    0.000000    0.000000    0.000000    0.000000
