! Anritsu VNA Master:                     Model: MS2036C/10/77
! SN:                                  1601066
! /card0/usr/18may12.lna.rl/254b.lna.rl.s2p
! Existing Calibration Information:
! TYPE:                         Current Settings,       Active Cal Settings
! TIME:             	   05/13/2018 11:09:23 AM,    05/13/2018 11:05:29 AM
! INTERNAL TEMP:    	                   46.8 C,                    46.3 C
! # POINTS:         	                      500,                       500
! START FREQ:       	               20.000 MHz,                20.000 MHz
! STOP FREQ:        	              120.000 MHz,               120.000 MHz
! SOURCE POWER:     	                      Low,                       Low
! IFBW:             	                    10 Hz,                     10 Hz
! AVG FACTOR:       	                       1 ,                        1 
! REF PLANE 1:      	                     0 mm,                      0 mm
! REF PLANE 2:      	                     0 mm,                      0 mm
! CAL TYPE:         	                 Full S22,                  Full S22
! CAL METHOD:       	                     SOLT,                      SOLT
! CAL LINE TYPE:    	                     Coax,                      Coax
! DUT PORT 1:       	                K-Conn(M),                 K-Conn(M)
! DUT PORT 2:       	                K-Conn(M),                 K-Conn(M)
! CAL STATUS:       	        OK: Accuracy High,                        --
# GHZ S DB R 50.0
! FREQ.GHZ       S11DB        S11A       S21DB        S21A       S12DB        S12A       S22DB        S22A
  0.020000000    0.000000    0.000000    0.000000    0.000000  -82.761873   68.925735  -20.578446   32.007858
  0.020200401    0.000000    0.000000    0.000000    0.000000  -84.302688   56.149158  -20.560720   29.054699
  0.020400802    0.000000    0.000000    0.000000    0.000000  -84.988436   64.759987  -20.533504   26.465273
  0.020601202    0.000000    0.000000    0.000000    0.000000  -83.699866   48.954628  -20.532887   25.431190
  0.020801603    0.000000    0.000000    0.000000    0.000000  -86.348390   75.632164  -20.418150   21.509865
  0.021002004    0.000000    0.000000    0.000000    0.000000  -81.086851   66.802467  -20.395345   19.790403
  0.021202405    0.000000    0.000000    0.000000    0.000000  -82.896436   62.083477  -20.326224   16.931929
  0.021402806    0.000000    0.000000    0.000000    0.000000  -82.198618   73.793434  -20.266155   13.939467
  0.021603206    0.000000    0.000000    0.000000    0.000000  -80.978090   58.989716  -20.303710   12.117799
  0.021803607    0.000000    0.000000    0.000000    0.000000  -81.814784   44.399548  -20.287783   10.143399
  0.022004008    0.000000    0.000000    0.000000    0.000000  -83.559277   73.120712  -20.219525    7.154557
  0.022204409    0.000000    0.000000    0.000000    0.000000  -82.928859   65.464951  -20.240349    4.263731
  0.022404810    0.000000    0.000000    0.000000    0.000000  -84.653569   42.625469  -20.139761    1.059281
  0.022605210    0.000000    0.000000    0.000000    0.000000  -84.095040   72.883476  -20.069316   -0.803136
  0.022805611    0.000000    0.000000    0.000000    0.000000  -83.263305   45.821632  -20.066540   -3.366513
  0.023006012    0.000000    0.000000    0.000000    0.000000  -82.503069   58.428101  -20.086590   -7.135725
  0.023206413    0.000000    0.000000    0.000000    0.000000  -85.110338   77.067505  -19.952661  -10.370474
  0.023406814    0.000000    0.000000    0.000000    0.000000  -84.506907   50.398071  -19.941637  -12.730899
  0.023607214    0.000000    0.000000    0.000000    0.000000  -85.983034   41.329754  -19.968029  -15.691088
  0.023807615    0.000000    0.000000    0.000000    0.000000  -82.120893   51.619366  -19.881795  -18.796694
  0.024008016    0.000000    0.000000    0.000000    0.000000  -85.153387   38.624001  -19.859644  -22.069880
  0.024208417    0.000000    0.000000    0.000000    0.000000  -84.226372   59.615231  -19.847081  -25.610851
  0.024408818    0.000000    0.000000    0.000000    0.000000  -85.079273   48.733704  -19.769467  -29.187706
  0.024609218    0.000000    0.000000    0.000000    0.000000  -82.650106   70.778259  -19.843399  -33.317028
  0.024809619    0.000000    0.000000    0.000000    0.000000  -84.069383   66.050652  -19.785673  -37.154305
  0.025010020    0.000000    0.000000    0.000000    0.000000  -83.770624   71.551208  -19.766896  -40.624496
  0.025210421    0.000000    0.000000    0.000000    0.000000  -86.238850   52.114174  -19.807744  -45.548252
  0.025410822    0.000000    0.000000    0.000000    0.000000  -84.546923   43.748135  -19.849207  -49.754063
  0.025611222    0.000000    0.000000    0.000000    0.000000  -81.334290   40.743324  -19.720675  -54.174465
  0.025811623    0.000000    0.000000    0.000000    0.000000  -85.131757   58.914150  -19.802182  -59.078602
  0.026012024    0.000000    0.000000    0.000000    0.000000  -83.598835   61.584324  -19.906022  -63.961830
  0.026212425    0.000000    0.000000    0.000000    0.000000  -83.407378   56.289227  -20.014170  -69.157883
  0.026412826    0.000000    0.000000    0.000000    0.000000  -82.547863   58.027599  -20.077207  -74.833420
  0.026613226    0.000000    0.000000    0.000000    0.000000  -84.030261   49.597458  -20.277785  -80.983513
  0.026813627    0.000000    0.000000    0.000000    0.000000  -82.357921   68.230385  -20.505537  -87.734665
  0.027014028    0.000000    0.000000    0.000000    0.000000  -84.938526   59.891960  -20.760686  -93.413162
  0.027214429    0.000000    0.000000    0.000000    0.000000  -83.826254   58.480194  -21.095589  -99.804420
  0.027414830    0.000000    0.000000    0.000000    0.000000  -84.301625   57.407726  -21.515905 -105.811119
  0.027615230    0.000000    0.000000    0.000000    0.000000  -82.267873   76.709969  -22.092160 -113.629738
  0.027815631    0.000000    0.000000    0.000000    0.000000  -84.133174   71.727242  -22.683539 -119.979156
  0.028016032    0.000000    0.000000    0.000000    0.000000  -84.633026   62.284275  -23.346338 -127.047012
  0.028216433    0.000000    0.000000    0.000000    0.000000  -84.250598   72.854889  -24.085599 -133.389709
  0.028416834    0.000000    0.000000    0.000000    0.000000  -85.112134   54.709999  -24.966630 -139.057419
  0.028617234    0.000000    0.000000    0.000000    0.000000  -86.145705   77.799225  -25.755462 -145.442291
  0.028817635    0.000000    0.000000    0.000000    0.000000  -84.898930   70.974243  -26.738084 -149.656082
  0.029018036    0.000000    0.000000    0.000000    0.000000  -85.973936   47.977688  -27.932069 -155.530533
  0.029218437    0.000000    0.000000    0.000000    0.000000  -88.045313   31.626307  -29.046532 -159.062134
  0.029418838    0.000000    0.000000    0.000000    0.000000  -84.665132   62.516190  -30.177273 -164.682709
  0.029619238    0.000000    0.000000    0.000000    0.000000  -85.195741   78.072014  -31.060880 -165.959076
  0.029819639    0.000000    0.000000    0.000000    0.000000  -85.717429   76.719170  -32.436981 -169.066147
  0.030020040    0.000000    0.000000    0.000000    0.000000  -85.042963   62.837269  -34.015357 -171.470779
  0.030220441    0.000000    0.000000    0.000000    0.000000  -87.643119   57.010708  -34.766505 -173.078827
  0.030420842    0.000000    0.000000    0.000000    0.000000  -83.851531   68.386871  -35.643226 -178.218262
  0.030621242    0.000000    0.000000    0.000000    0.000000  -84.150706   31.644499  -37.246013 -176.099213
  0.030821643    0.000000    0.000000    0.000000    0.000000  -86.297794   60.679195  -38.932336 -177.880951
  0.031022044    0.000000    0.000000    0.000000    0.000000  -86.873466   73.694328  -38.532778 -175.279877
  0.031222445    0.000000    0.000000    0.000000    0.000000  -82.846015   73.380203  -39.587390  177.293427
  0.031422846    0.000000    0.000000    0.000000    0.000000  -86.503991   59.181023  -40.025020 -176.764328
  0.031623246    0.000000    0.000000    0.000000    0.000000  -82.584616   60.691982  -41.426579 -174.554504
  0.031823647    0.000000    0.000000    0.000000    0.000000  -86.816545   58.305580  -41.841843 -174.422150
  0.032024048    0.000000    0.000000    0.000000    0.000000  -89.115907   69.803375  -43.600038 -177.869858
  0.032224449    0.000000    0.000000    0.000000    0.000000  -88.220837   61.656528  -43.104783 -175.313263
  0.032424850    0.000000    0.000000    0.000000    0.000000  -81.329928   60.092720  -43.310439 -179.053543
  0.032625251    0.000000    0.000000    0.000000    0.000000  -83.129717   50.155785  -44.097264 -176.020432
  0.032825651    0.000000    0.000000    0.000000    0.000000  -87.694240   61.934113  -45.443328  177.088913
  0.033026052    0.000000    0.000000    0.000000    0.000000  -86.767465   66.521172  -44.209289  174.915146
  0.033226453    0.000000    0.000000    0.000000    0.000000  -86.178431   78.198555  -45.111393 -177.588654
  0.033426854    0.000000    0.000000    0.000000    0.000000  -85.573525   39.508656  -44.132992  171.885498
  0.033627255    0.000000    0.000000    0.000000    0.000000  -84.995450   51.823166  -44.231315  169.542404
  0.033827655    0.000000    0.000000    0.000000    0.000000  -86.820593   50.590694  -48.284476  148.036850
  0.034028056    0.000000    0.000000    0.000000    0.000000  -81.664083   55.615631  -45.389726  146.705948
  0.034228457    0.000000    0.000000    0.000000    0.000000  -83.274110   48.601887  -44.273690  153.179337
  0.034428858    0.000000    0.000000    0.000000    0.000000  -86.041775   40.834789  -45.909533  138.592789
  0.034629259    0.000000    0.000000    0.000000    0.000000  -84.207003   67.707863  -47.022897  143.242325
  0.034829659    0.000000    0.000000    0.000000    0.000000  -83.869913   56.439323  -48.089565  133.469223
  0.035030060    0.000000    0.000000    0.000000    0.000000  -82.986193   69.393188  -47.556977  124.924118
  0.035230461    0.000000    0.000000    0.000000    0.000000  -86.919893   47.111645  -45.851490  124.329865
  0.035430862    0.000000    0.000000    0.000000    0.000000  -82.048221   67.649117  -48.556530  121.555527
  0.035631263    0.000000    0.000000    0.000000    0.000000  -86.391841   45.559586  -47.842058   93.630226
  0.035831663    0.000000    0.000000    0.000000    0.000000  -86.087826   85.105682  -45.922014  107.959000
  0.036032064    0.000000    0.000000    0.000000    0.000000  -89.697584   64.686745  -45.530647   99.048019
  0.036232465    0.000000    0.000000    0.000000    0.000000  -84.212344   57.447319  -48.277430  108.394539
  0.036432866    0.000000    0.000000    0.000000    0.000000  -82.599271   74.376389  -45.064517  104.685188
  0.036633267    0.000000    0.000000    0.000000    0.000000  -84.438280   65.163216  -45.854742   82.213272
  0.036833667    0.000000    0.000000    0.000000    0.000000  -88.496431   28.958458  -45.480792   79.159554
  0.037034068    0.000000    0.000000    0.000000    0.000000  -86.275982   64.806839  -44.450336   76.193611
  0.037234469    0.000000    0.000000    0.000000    0.000000  -87.837636   83.669998  -43.806225   66.265800
  0.037434870    0.000000    0.000000    0.000000    0.000000  -84.524239   68.260689  -44.418524   73.275620
  0.037635271    0.000000    0.000000    0.000000    0.000000  -82.972982   66.442726  -44.277502   73.686951
  0.037835671    0.000000    0.000000    0.000000    0.000000  -86.437100   53.715752  -44.571813   71.059883
  0.038036072    0.000000    0.000000    0.000000    0.000000  -83.273206   86.309494  -44.067045   69.057747
  0.038236473    0.000000    0.000000    0.000000    0.000000  -83.689912   77.145920  -44.005905   57.675743
  0.038436874    0.000000    0.000000    0.000000    0.000000  -88.206702   51.656044  -44.143659   47.852673
  0.038637275    0.000000    0.000000    0.000000    0.000000  -87.136988   57.322369  -44.123677   53.864296
  0.038837675    0.000000    0.000000    0.000000    0.000000  -85.218349   62.078701  -44.506989   56.788418
  0.039038076    0.000000    0.000000    0.000000    0.000000  -82.479694   57.799923  -44.754272   48.075920
  0.039238477    0.000000    0.000000    0.000000    0.000000  -82.538246   63.322273  -45.032661   56.032326
  0.039438878    0.000000    0.000000    0.000000    0.000000  -87.140112   88.672615  -46.779311   44.552036
  0.039639279    0.000000    0.000000    0.000000    0.000000  -85.545999   60.430939  -44.565423   57.359634
  0.039839679    0.000000    0.000000    0.000000    0.000000  -88.609431   80.257820  -45.676304   46.607098
  0.040040080    0.000000    0.000000    0.000000    0.000000  -87.945708   51.742924  -46.781116   36.880405
  0.040240481    0.000000    0.000000    0.000000    0.000000  -85.694567   49.498905  -43.925208   40.905582
  0.040440882    0.000000    0.000000    0.000000    0.000000  -84.216021   62.031773  -44.645246   33.135159
  0.040641283    0.000000    0.000000    0.000000    0.000000  -88.114458   74.437302  -44.125364   41.772285
  0.040841683    0.000000    0.000000    0.000000    0.000000  -87.771982   25.594416  -46.170702   31.463177
  0.041042084    0.000000    0.000000    0.000000    0.000000  -85.512387   43.325626  -43.350780   46.395294
  0.041242485    0.000000    0.000000    0.000000    0.000000  -83.598641   72.113960  -44.784680   42.259167
  0.041442886    0.000000    0.000000    0.000000    0.000000  -83.299727   67.992218  -46.084236   45.494732
  0.041643287    0.000000    0.000000    0.000000    0.000000  -82.814861   69.233345  -46.891093   15.602012
  0.041843687    0.000000    0.000000    0.000000    0.000000  -85.405511   68.957329  -48.971147   33.856792
  0.042044088    0.000000    0.000000    0.000000    0.000000  -85.219663   71.027565  -48.170901   40.457264
  0.042244489    0.000000    0.000000    0.000000    0.000000  -85.925481   64.541656  -47.975943   36.338943
  0.042444890    0.000000    0.000000    0.000000    0.000000  -83.535737   84.784447  -48.568901   32.489292
  0.042645291    0.000000    0.000000    0.000000    0.000000  -89.892713   72.838776  -47.778987   44.808426
  0.042845691    0.000000    0.000000    0.000000    0.000000  -84.432952   60.832512  -49.829109   36.591797
  0.043046092    0.000000    0.000000    0.000000    0.000000  -85.446731   76.614136  -48.029363   45.662209
  0.043246493    0.000000    0.000000    0.000000    0.000000  -85.073638   74.655891  -51.868191   45.061317
  0.043446894    0.000000    0.000000    0.000000    0.000000  -87.764007   90.120613  -51.890571   72.231529
  0.043647295    0.000000    0.000000    0.000000    0.000000  -85.564129   75.386330  -51.991978   48.581924
  0.043847695    0.000000    0.000000    0.000000    0.000000  -89.306960   25.315329  -50.862822   49.201714
  0.044048096    0.000000    0.000000    0.000000    0.000000  -83.918984   48.454201  -49.593843   74.655853
  0.044248497    0.000000    0.000000    0.000000    0.000000  -86.342781   61.634014  -51.031676   54.139435
  0.044448898    0.000000    0.000000    0.000000    0.000000  -86.538051   48.546764  -55.190723   76.471649
  0.044649299    0.000000    0.000000    0.000000    0.000000  -82.538809   63.256233  -49.912642   77.848183
  0.044849699    0.000000    0.000000    0.000000    0.000000  -85.433253   89.900993  -51.308329   76.677521
  0.045050100    0.000000    0.000000    0.000000    0.000000  -85.790537   74.326981  -49.486048   99.605667
  0.045250501    0.000000    0.000000    0.000000    0.000000  -83.726440   83.122437  -48.906265   87.320419
  0.045450902    0.000000    0.000000    0.000000    0.000000  -83.896744   69.117317  -47.819063   91.018387
  0.045651303    0.000000    0.000000    0.000000    0.000000  -85.469409   47.520378  -47.206826  110.640587
  0.045851703    0.000000    0.000000    0.000000    0.000000  -86.286181   77.427498  -46.125293   98.347397
  0.046052104    0.000000    0.000000    0.000000    0.000000  -87.552930   68.092201  -48.209172   96.026131
  0.046252505    0.000000    0.000000    0.000000    0.000000  -88.140794   53.732143  -45.808741  110.458076
  0.046452906    0.000000    0.000000    0.000000    0.000000  -83.350442   78.440880  -44.217500  101.133003
  0.046653307    0.000000    0.000000    0.000000    0.000000  -83.127763   67.100014  -43.571334   96.386353
  0.046853707    0.000000    0.000000    0.000000    0.000000  -83.975325   66.167953  -46.378394  108.120552
  0.047054108    0.000000    0.000000    0.000000    0.000000  -85.579824   77.124115  -42.892248  103.624771
  0.047254509    0.000000    0.000000    0.000000    0.000000  -84.404566   75.279343  -43.445448  104.354752
  0.047454910    0.000000    0.000000    0.000000    0.000000  -81.903494   65.576393  -42.093433   97.500343
  0.047655311    0.000000    0.000000    0.000000    0.000000  -86.998512   49.612480  -42.677339  104.701622
  0.047855711    0.000000    0.000000    0.000000    0.000000  -87.054873   76.610229  -41.830130  101.949547
  0.048056112    0.000000    0.000000    0.000000    0.000000  -85.309775   64.605850  -40.993265   96.467949
  0.048256513    0.000000    0.000000    0.000000    0.000000  -88.620597   52.656803  -41.503827   94.962479
  0.048456914    0.000000    0.000000    0.000000    0.000000  -88.019645   89.888687  -40.748835  105.534920
  0.048657315    0.000000    0.000000    0.000000    0.000000  -83.077058   64.755981  -40.774273   97.590454
  0.048857715    0.000000    0.000000    0.000000    0.000000  -86.841142   73.907898  -39.380708   98.208435
  0.049058116    0.000000    0.000000    0.000000    0.000000  -84.789801   76.042435  -39.074452   96.259476
  0.049258517    0.000000    0.000000    0.000000    0.000000  -86.251283   60.868828  -38.325567   97.480911
  0.049458918    0.000000    0.000000    0.000000    0.000000  -86.425275   57.700851  -38.439121   94.288918
  0.049659319    0.000000    0.000000    0.000000    0.000000  -85.882344   72.431305  -39.120380   97.916321
  0.049859719    0.000000    0.000000    0.000000    0.000000  -86.252721   57.246429  -37.943455   94.413567
  0.050060120    0.000000    0.000000    0.000000    0.000000  -83.161359   82.347107  -37.993060   96.814888
  0.050260521    0.000000    0.000000    0.000000    0.000000  -84.469975   88.511131  -38.503628   94.924889
  0.050460922    0.000000    0.000000    0.000000    0.000000  -82.775429   59.646484  -38.448147   87.092926
  0.050661323    0.000000    0.000000    0.000000    0.000000  -87.277790   61.946381  -37.321899   90.783058
  0.050861723    0.000000    0.000000    0.000000    0.000000  -86.042293   57.953350  -37.512325   85.003334
  0.051062124    0.000000    0.000000    0.000000    0.000000  -84.850507   87.476982  -37.928721   88.361534
  0.051262525    0.000000    0.000000    0.000000    0.000000  -85.646892   60.868366  -37.063668   87.688011
  0.051462926    0.000000    0.000000    0.000000    0.000000  -82.751940   82.991829  -36.304918   87.816727
  0.051663327    0.000000    0.000000    0.000000    0.000000  -85.070115   74.138763  -36.283350   84.371803
  0.051863727    0.000000    0.000000    0.000000    0.000000  -84.133984   66.380325  -35.759659   79.545174
  0.052064128    0.000000    0.000000    0.000000    0.000000  -84.664945   66.916656  -36.267010   85.564125
  0.052264529    0.000000    0.000000    0.000000    0.000000  -87.572823   87.855804  -36.214013   80.619041
  0.052464930    0.000000    0.000000    0.000000    0.000000  -85.021690   57.785511  -35.791889   78.412422
  0.052665331    0.000000    0.000000    0.000000    0.000000  -88.947686   42.391121  -36.094555   79.590294
  0.052865731    0.000000    0.000000    0.000000    0.000000  -91.067378   74.521988  -35.718794   78.515892
