! Anritsu VNA Master:                     Model: MS2036C/10/77
! SN:                                  1601066
! /bd0/18may26.balun/2a.m.s2p
! Existing Calibration Information:
! TYPE:                         Current Settings,       Active Cal Settings
! TIME:             	   05/26/2018 07:33:09 PM,    05/26/2018 07:26:54 PM
! INTERNAL TEMP:    	                   45.3 C,                    45.5 C
! # POINTS:         	                      500,                       500
! START FREQ:       	               20.000 MHz,                20.000 MHz
! STOP FREQ:        	              120.000 MHz,               120.000 MHz
! SOURCE POWER:     	                     High,                      High
! IFBW:             	                    50 Hz,                     50 Hz
! AVG FACTOR:       	                       1 ,                        1 
! REF PLANE 1:      	                     0 mm,                      0 mm
! REF PLANE 2:      	                     0 mm,                      0 mm
! CAL TYPE:         	                 Full S11,                  Full S11
! CAL METHOD:       	                     SOLT,                      SOLT
! CAL LINE TYPE:    	                     Coax,                      Coax
! DUT PORT 1:       	                K-Conn(M),                 K-Conn(M)
! DUT PORT 2:       	                K-Conn(M),                 K-Conn(M)
! CAL STATUS:       	        OK: Accuracy High,                        --
# GHZ S DB R 50.0
! FREQ.GHZ       S11DB        S11A       S21DB        S21A       S12DB        S12A       S22DB        S22A
  0.020000000   -0.613208 -125.342072  -90.254849   31.232735    0.000000    0.000000    0.000000    0.000000
  0.020200401   -0.610033 -126.827103  -90.616115   26.676130    0.000000    0.000000    0.000000    0.000000
  0.020400802   -0.609221 -128.277161  -92.276556   28.490147    0.000000    0.000000    0.000000    0.000000
  0.020601202   -0.610151 -129.733353  -91.704998   29.220379    0.000000    0.000000    0.000000    0.000000
  0.020801603   -0.613257 -131.207993  -91.912361   26.098900    0.000000    0.000000    0.000000    0.000000
  0.021002004   -0.618775 -132.723785  -92.615683   31.961287    0.000000    0.000000    0.000000    0.000000
  0.021202405   -0.626754 -134.256516  -92.732160   33.991875    0.000000    0.000000    0.000000    0.000000
  0.021402806   -0.631316 -135.777451  -92.200136   34.762383    0.000000    0.000000    0.000000    0.000000
  0.021603206   -0.636090 -137.306061  -93.065807   35.286797    0.000000    0.000000    0.000000    0.000000
  0.021803607   -0.639230 -138.823410  -93.355502   29.467218    0.000000    0.000000    0.000000    0.000000
  0.022004008   -0.645972 -140.382965  -93.001125   38.693027    0.000000    0.000000    0.000000    0.000000
  0.022204409   -0.648929 -141.959259  -92.368699   38.990673    0.000000    0.000000    0.000000    0.000000
  0.022404810   -0.652042 -143.525177  -92.790102   35.863522    0.000000    0.000000    0.000000    0.000000
  0.022605210   -0.652841 -145.094086  -93.426628   39.245510    0.000000    0.000000    0.000000    0.000000
  0.022805611   -0.652128 -146.660233  -92.077934   34.641163    0.000000    0.000000    0.000000    0.000000
  0.023006012   -0.655699 -148.225098  -92.350661   36.071938    0.000000    0.000000    0.000000    0.000000
  0.023206413   -0.664642 -149.794266  -92.506291   32.962307    0.000000    0.000000    0.000000    0.000000
  0.023406814   -0.669688 -151.407913  -93.085223   29.287739    0.000000    0.000000    0.000000    0.000000
  0.023607214   -0.677942 -153.028061  -91.921862   31.739262    0.000000    0.000000    0.000000    0.000000
  0.023807615   -0.685599 -154.636719  -92.459936   27.604959    0.000000    0.000000    0.000000    0.000000
  0.024008016   -0.696012 -156.241074  -92.200180   25.113289    0.000000    0.000000    0.000000    0.000000
  0.024208417   -0.705334 -157.856567  -93.271683   20.931738    0.000000    0.000000    0.000000    0.000000
  0.024408818   -0.717894 -159.492783  -93.448163   23.027723    0.000000    0.000000    0.000000    0.000000
  0.024609218   -0.728208 -161.168152  -94.016936   21.271235    0.000000    0.000000    0.000000    0.000000
  0.024809619   -0.735015 -162.839493  -93.774309   18.001835    0.000000    0.000000    0.000000    0.000000
  0.025010020   -0.740288 -164.522705  -94.134938   21.073383    0.000000    0.000000    0.000000    0.000000
  0.025210421   -0.750404 -166.194839  -94.072484   19.472807    0.000000    0.000000    0.000000    0.000000
  0.025410822   -0.759680 -167.881195  -94.150606   29.087751    0.000000    0.000000    0.000000    0.000000
  0.025611222   -0.771784 -169.571045  -95.013372   21.815401    0.000000    0.000000    0.000000    0.000000
  0.025811623   -0.782068 -171.280884  -94.244805   18.535339    0.000000    0.000000    0.000000    0.000000
  0.026012024   -0.792917 -173.000885  -94.587012   21.880001    0.000000    0.000000    0.000000    0.000000
  0.026212425   -0.807400 -174.729111  -95.285833   17.002935    0.000000    0.000000    0.000000    0.000000
  0.026412826   -0.825122 -176.464340  -95.018157   21.818197    0.000000    0.000000    0.000000    0.000000
  0.026613226   -0.842826 -178.209274  -94.886710   24.572718    0.000000    0.000000    0.000000    0.000000
  0.026813627   -0.859746 -179.971161  -95.114538   26.262327    0.000000    0.000000    0.000000    0.000000
  0.027014028   -0.874970  178.274612  -95.524032   25.728561    0.000000    0.000000    0.000000    0.000000
  0.027214429   -0.889430  176.514267  -94.955555   28.030882    0.000000    0.000000    0.000000    0.000000
  0.027414830   -0.905725  174.746216  -95.755242   29.570877    0.000000    0.000000    0.000000    0.000000
  0.027615230   -0.924037  172.965027  -95.127033   26.316050    0.000000    0.000000    0.000000    0.000000
  0.027815631   -0.945587  171.163193  -95.283097   21.471418    0.000000    0.000000    0.000000    0.000000
  0.028016032   -0.965320  169.344147  -95.821644   23.312410    0.000000    0.000000    0.000000    0.000000
  0.028216433   -0.983997  167.512070  -94.933781   27.612963    0.000000    0.000000    0.000000    0.000000
  0.028416834   -1.007884  165.683960  -95.371937   15.623489    0.000000    0.000000    0.000000    0.000000
  0.028617234   -1.031433  163.840302  -95.295255   21.498688    0.000000    0.000000    0.000000    0.000000
  0.028817635   -1.056454  161.993362  -95.565199   15.986493    0.000000    0.000000    0.000000    0.000000
  0.029018036   -1.081639  160.101563  -96.002384   14.003425    0.000000    0.000000    0.000000    0.000000
  0.029218437   -1.105397  158.205383  -96.345821   14.726588    0.000000    0.000000    0.000000    0.000000
  0.029418838   -1.126922  156.311874  -97.017301   16.414476    0.000000    0.000000    0.000000    0.000000
  0.029619238   -1.148629  154.448090  -96.951720   15.845119    0.000000    0.000000    0.000000    0.000000
  0.029819639   -1.172498  152.594849  -97.441190   15.755373    0.000000    0.000000    0.000000    0.000000
  0.030020040   -1.201002  150.723541  -96.346937   19.360716    0.000000    0.000000    0.000000    0.000000
  0.030220441   -1.233266  148.839752  -97.019578    9.395688    0.000000    0.000000    0.000000    0.000000
  0.030420842   -1.271602  146.924957  -97.168850   20.695486    0.000000    0.000000    0.000000    0.000000
  0.030621242   -1.309520  144.963287  -97.797671   24.385193    0.000000    0.000000    0.000000    0.000000
  0.030821643   -1.345125  142.966995  -97.541351   14.666996    0.000000    0.000000    0.000000    0.000000
  0.031022044   -1.378027  140.955002  -97.673827   15.594997    0.000000    0.000000    0.000000    0.000000
  0.031222445   -1.405167  138.947556  -97.376244   20.422031    0.000000    0.000000    0.000000    0.000000
  0.031422846   -1.433185  136.942535  -97.086538    6.197824    0.000000    0.000000    0.000000    0.000000
  0.031623246   -1.460481  134.940857  -98.688527   15.403198    0.000000    0.000000    0.000000    0.000000
  0.031823647   -1.482729  132.992447  -97.751010   17.612106    0.000000    0.000000    0.000000    0.000000
  0.032024048   -1.508859  131.048782  -98.674159    3.986927    0.000000    0.000000    0.000000    0.000000
  0.032224449   -1.538269  129.104782  -97.559377   21.656328    0.000000    0.000000    0.000000    0.000000
  0.032424850   -1.573036  127.167236  -96.955240   11.823758    0.000000    0.000000    0.000000    0.000000
  0.032625251   -1.612862  125.212654  -97.350638   15.054437    0.000000    0.000000    0.000000    0.000000
  0.032825651   -1.657594  123.249306  -97.854337   12.134837    0.000000    0.000000    0.000000    0.000000
  0.033026052   -1.706538  121.259010  -97.231480   12.231196    0.000000    0.000000    0.000000    0.000000
  0.033226453   -1.753073  119.270264  -99.485498    7.246020    0.000000    0.000000    0.000000    0.000000
  0.033426854   -1.804648  117.239937  -98.204064   11.753575    0.000000    0.000000    0.000000    0.000000
  0.033627255   -1.851154  115.186745  -98.229268    2.853505    0.000000    0.000000    0.000000    0.000000
  0.033827655   -1.898393  113.107323  -98.668028   15.581560    0.000000    0.000000    0.000000    0.000000
  0.034028056   -1.948845  111.021721  -98.483336   12.076845    0.000000    0.000000    0.000000    0.000000
  0.034228457   -1.998354  108.913300  -97.733678   19.453060    0.000000    0.000000    0.000000    0.000000
  0.034428858   -2.039702  106.848587  -98.997990   14.768942    0.000000    0.000000    0.000000    0.000000
  0.034629259   -2.082194  104.769218  -99.057114   15.946682    0.000000    0.000000    0.000000    0.000000
  0.034829659   -2.123362  102.719917  -98.137135   -4.497151    0.000000    0.000000    0.000000    0.000000
  0.035030060   -2.165631  100.739693  -98.525731   14.711308    0.000000    0.000000    0.000000    0.000000
  0.035230461   -2.220503   98.739754  -99.431476   12.169885    0.000000    0.000000    0.000000    0.000000
  0.035430862   -2.279099   96.723602  -97.962736   16.703367    0.000000    0.000000    0.000000    0.000000
  0.035631263   -2.341528   94.707680  -99.493328   18.818817    0.000000    0.000000    0.000000    0.000000
  0.035831663   -2.406424   92.620514  -99.420861    7.627831    0.000000    0.000000    0.000000    0.000000
  0.036032064   -2.466575   90.498550  -98.144390   11.841744    0.000000    0.000000    0.000000    0.000000
  0.036232465   -2.524514   88.345604  -98.022654   12.208347    0.000000    0.000000    0.000000    0.000000
  0.036432866   -2.584761   86.162575  -98.946452    7.193820    0.000000    0.000000    0.000000    0.000000
  0.036633267   -2.635783   84.008675  -99.028689    4.182727    0.000000    0.000000    0.000000    0.000000
  0.036833667   -2.683237   81.864555  -97.908682   15.557263    0.000000    0.000000    0.000000    0.000000
  0.037034068   -2.729897   79.737503  -99.163737   14.329425    0.000000    0.000000    0.000000    0.000000
  0.037234469   -2.774400   77.654503  -98.921277    3.509971    0.000000    0.000000    0.000000    0.000000
  0.037434870   -2.818779   75.599655  -98.899310    8.345920    0.000000    0.000000    0.000000    0.000000
  0.037635271   -2.867763   73.550125  -98.342502   -3.176475    0.000000    0.000000    0.000000    0.000000
  0.037835671   -2.918013   71.522308  -99.419212    7.748479    0.000000    0.000000    0.000000    0.000000
  0.038036072   -2.969415   69.471878 -102.318129   15.823195    0.000000    0.000000    0.000000    0.000000
  0.038236473   -3.034658   67.403778 -101.606107    7.931942    0.000000    0.000000    0.000000    0.000000
  0.038436874   -3.101711   65.333549 -100.260090    3.579054    0.000000    0.000000    0.000000    0.000000
  0.038637275   -3.167428   63.261269 -102.061337    0.151882    0.000000    0.000000    0.000000    0.000000
  0.038837675   -3.233882   61.158298 -101.087241   -6.933163    0.000000    0.000000    0.000000    0.000000
  0.039038076   -3.297606   58.974266 -101.001360   10.344199    0.000000    0.000000    0.000000    0.000000
  0.039238477   -3.353578   56.826691 -101.853928    8.337999    0.000000    0.000000    0.000000    0.000000
  0.039438878   -3.401856   54.695038 -100.282197    6.597738    0.000000    0.000000    0.000000    0.000000
  0.039639279   -3.447273   52.611225 -101.353096   10.203832    0.000000    0.000000    0.000000    0.000000
  0.039839679   -3.493384   50.575665 -101.105723   12.701023    0.000000    0.000000    0.000000    0.000000
  0.040040080   -3.541187   48.603317  -99.448937    5.160781    0.000000    0.000000    0.000000    0.000000
  0.040240481   -3.595287   46.591843  -99.425343    7.757394    0.000000    0.000000    0.000000    0.000000
  0.040440882   -3.657602   44.582153  -99.682311   12.292974    0.000000    0.000000    0.000000    0.000000
  0.040641283   -3.719584   42.529125 -100.191437    7.510524    0.000000    0.000000    0.000000    0.000000
  0.040841683   -3.779078   40.479733  -99.968314   21.359215    0.000000    0.000000    0.000000    0.000000
  0.041042084   -3.842931   38.417259  -99.221945   -2.559903    0.000000    0.000000    0.000000    0.000000
  0.041242485   -3.901546   36.359718 -100.293956    9.665331    0.000000    0.000000    0.000000    0.000000
  0.041442886   -3.956057   34.304237  -99.086542    5.819187    0.000000    0.000000    0.000000    0.000000
  0.041643287   -4.012285   32.222034  -99.305731    3.527260    0.000000    0.000000    0.000000    0.000000
  0.041843687   -4.065450   30.167231 -101.863814    6.609431    0.000000    0.000000    0.000000    0.000000
  0.042044088   -4.116521   28.123972 -102.903458   -2.211788    0.000000    0.000000    0.000000    0.000000
  0.042244489   -4.163861   26.093893 -101.720915    8.346142    0.000000    0.000000    0.000000    0.000000
  0.042444890   -4.212951   24.096901 -101.191679   -4.063244    0.000000    0.000000    0.000000    0.000000
  0.042645291   -4.261924   22.091915 -102.919315   16.180559    0.000000    0.000000    0.000000    0.000000
  0.042845691   -4.309868   20.082924 -101.448375    0.570153    0.000000    0.000000    0.000000    0.000000
  0.043046092   -4.356888   18.098551 -102.653575    8.877002    0.000000    0.000000    0.000000    0.000000
  0.043246493   -4.405230   16.102472 -103.210126   -0.375927    0.000000    0.000000    0.000000    0.000000
  0.043446894   -4.453389   14.137088 -101.290791   10.037020    0.000000    0.000000    0.000000    0.000000
  0.043647295   -4.505001   12.165566 -101.775115    3.986798    0.000000    0.000000    0.000000    0.000000
  0.043847695   -4.553522   10.207503 -100.979697   12.368353    0.000000    0.000000    0.000000    0.000000
  0.044048096   -4.601371    8.218024 -101.910930    1.429095    0.000000    0.000000    0.000000    0.000000
  0.044248497   -4.647146    6.247456 -100.561444   12.049451    0.000000    0.000000    0.000000    0.000000
  0.044448898   -4.686941    4.292123 -102.205965   11.429567    0.000000    0.000000    0.000000    0.000000
  0.044649299   -4.726268    2.365431 -102.973623    5.785437    0.000000    0.000000    0.000000    0.000000
  0.044849699   -4.769316    0.455949 -101.226987   17.188536    0.000000    0.000000    0.000000    0.000000
  0.045050100   -4.812329   -1.440773 -101.146732    9.598207    0.000000    0.000000    0.000000    0.000000
  0.045250501   -4.856857   -3.352544 -101.896464    1.359953    0.000000    0.000000    0.000000    0.000000
  0.045450902   -4.896801   -5.275446 -100.681632   -5.234405    0.000000    0.000000    0.000000    0.000000
  0.045651303   -4.938568   -7.181360 -100.254430    2.048295    0.000000    0.000000    0.000000    0.000000
  0.045851703   -4.972489   -9.085244 -101.144925    5.593578    0.000000    0.000000    0.000000    0.000000
  0.046052104   -5.013965  -10.985924 -102.938305    2.798254    0.000000    0.000000    0.000000    0.000000
  0.046252505   -5.048013  -12.861352 -103.007103   -5.478394    0.000000    0.000000    0.000000    0.000000
  0.046452906   -5.083517  -14.707118 -101.808864   -2.981808    0.000000    0.000000    0.000000    0.000000
  0.046653307   -5.120905  -16.545282 -101.824656    2.936720    0.000000    0.000000    0.000000    0.000000
  0.046853707   -5.157806  -18.407028 -101.389411   -5.048720    0.000000    0.000000    0.000000    0.000000
  0.047054108   -5.192273  -20.254913 -101.634975   -5.809135    0.000000    0.000000    0.000000    0.000000
  0.047254509   -5.224381  -22.084755 -103.923896   -5.549172    0.000000    0.000000    0.000000    0.000000
  0.047454910   -5.260655  -23.921413 -103.278579    1.936181    0.000000    0.000000    0.000000    0.000000
  0.047655311   -5.291918  -25.725523 -103.749648   11.235858    0.000000    0.000000    0.000000    0.000000
  0.047855711   -5.323704  -27.541805 -101.303622    0.529809    0.000000    0.000000    0.000000    0.000000
  0.048056112   -5.354220  -29.359554 -102.545127  -10.321630    0.000000    0.000000    0.000000    0.000000
  0.048256513   -5.382468  -31.144241 -102.015871    8.427318    0.000000    0.000000    0.000000    0.000000
  0.048456914   -5.409001  -32.971027 -101.558908   10.937593    0.000000    0.000000    0.000000    0.000000
  0.048657315   -5.433885  -34.767006 -102.034290    8.896948    0.000000    0.000000    0.000000    0.000000
  0.048857715   -5.453490  -36.518478 -102.222116    3.672709    0.000000    0.000000    0.000000    0.000000
  0.049058116   -5.476759  -38.241234 -101.865245   16.758034    0.000000    0.000000    0.000000    0.000000
  0.049258517   -5.497786  -39.931591 -105.090380    6.460639    0.000000    0.000000    0.000000    0.000000
  0.049458918   -5.520948  -41.611420 -104.528713   21.189114    0.000000    0.000000    0.000000    0.000000
  0.049659319   -5.550019  -43.304379 -102.029393    7.537643    0.000000    0.000000    0.000000    0.000000
  0.049859719   -5.571769  -44.993076 -101.346763   -4.878777    0.000000    0.000000    0.000000    0.000000
  0.050060120   -5.600865  -46.698006 -103.011449    6.234354    0.000000    0.000000    0.000000    0.000000
  0.050260521   -5.625078  -48.363804 -100.036454   -2.559966    0.000000    0.000000    0.000000    0.000000
  0.050460922   -5.649134  -50.057575 -103.061069    9.536847    0.000000    0.000000    0.000000    0.000000
  0.050661323   -5.670033  -51.758972 -104.261818   -4.200202    0.000000    0.000000    0.000000    0.000000
  0.050861723   -5.684213  -53.453568 -101.722041  -10.510014    0.000000    0.000000    0.000000    0.000000
  0.051062124   -5.699269  -55.127098 -102.231007   -5.651030    0.000000    0.000000    0.000000    0.000000
  0.051262525   -5.711535  -56.732151 -102.697650   -1.272797    0.000000    0.000000    0.000000    0.000000
  0.051462926   -5.723238  -58.349236 -103.278412   12.001702    0.000000    0.000000    0.000000    0.000000
  0.051663327   -5.741666  -59.943687 -103.739125   -5.655800    0.000000    0.000000    0.000000    0.000000
  0.051863727   -5.757490  -61.515926 -103.016978   -1.681732    0.000000    0.000000    0.000000    0.000000
  0.052064128   -5.776703  -63.088196 -104.020175   -7.017436    0.000000    0.000000    0.000000    0.000000
  0.052264529   -5.794502  -64.666420 -104.730458    0.972627    0.000000    0.000000    0.000000    0.000000
  0.052464930   -5.808884  -66.248055 -103.511787    5.763979    0.000000    0.000000    0.000000    0.000000
  0.052665331   -5.825732  -67.829498 -106.096516   22.007931    0.000000    0.000000    0.000000    0.000000
  0.052865731   -5.842140  -69.385208 -104.376489   -1.799131    0.000000    0.000000    0.000000    0.000000
