! Anritsu VNA Master:                     Model: MS2036C/10/77
! SN:                                  1601066
! /card0/usr/18may12.lna.rl/252a.lna.rl.s2p
! Existing Calibration Information:
! TYPE:                         Current Settings,       Active Cal Settings
! TIME:             	   05/12/2018 04:24:09 PM,    05/12/2018 04:14:26 PM
! INTERNAL TEMP:    	                   49.5 C,                    49.8 C
! # POINTS:         	                      500,                       500
! START FREQ:       	               20.000 MHz,                20.000 MHz
! STOP FREQ:        	              120.000 MHz,               120.000 MHz
! SOURCE POWER:     	                      Low,                       Low
! IFBW:             	                    10 Hz,                     10 Hz
! AVG FACTOR:       	                       1 ,                        1 
! REF PLANE 1:      	                     0 mm,                      0 mm
! REF PLANE 2:      	                     0 mm,                      0 mm
! CAL TYPE:         	                 Full S22,                  Full S22
! CAL METHOD:       	                     SOLT,                      SOLT
! CAL LINE TYPE:    	                     Coax,                      Coax
! DUT PORT 1:       	                K-Conn(M),                 K-Conn(M)
! DUT PORT 2:       	                K-Conn(M),                 K-Conn(M)
! CAL STATUS:       	        OK: Accuracy High,                        --
# GHZ S DB R 50.0
! FREQ.GHZ       S11DB        S11A       S21DB        S21A       S12DB        S12A       S22DB        S22A
  0.020000000    0.000000    0.000000    0.000000    0.000000  -80.951448   64.985565  -21.187551   42.077545
  0.020200401    0.000000    0.000000    0.000000    0.000000  -82.404593   69.042267  -21.257756   38.832272
  0.020400802    0.000000    0.000000    0.000000    0.000000  -82.056387   59.019398  -21.120482   36.348621
  0.020601202    0.000000    0.000000    0.000000    0.000000  -82.152911   52.349766  -21.212999   34.261353
  0.020801603    0.000000    0.000000    0.000000    0.000000  -82.671734   49.262089  -21.208576   31.043282
  0.021002004    0.000000    0.000000    0.000000    0.000000  -81.840234   52.746414  -21.246070   28.613960
  0.021202405    0.000000    0.000000    0.000000    0.000000  -83.981405   64.830269  -21.320928   25.752188
  0.021402806    0.000000    0.000000    0.000000    0.000000  -82.344758   86.236336  -21.290847   23.106871
  0.021603206    0.000000    0.000000    0.000000    0.000000  -81.234278   75.238228  -21.257243   19.582853
  0.021803607    0.000000    0.000000    0.000000    0.000000  -86.533161   59.956356  -21.189048   17.066490
  0.022004008    0.000000    0.000000    0.000000    0.000000  -84.011605   58.874016  -21.259696   14.024919
  0.022204409    0.000000    0.000000    0.000000    0.000000  -84.261936   83.925102  -21.187768   11.167560
  0.022404810    0.000000    0.000000    0.000000    0.000000  -84.331915   74.118332  -21.283971    8.168363
  0.022605210    0.000000    0.000000    0.000000    0.000000  -84.075053   52.068428  -21.184032    5.202240
  0.022805611    0.000000    0.000000    0.000000    0.000000  -85.841322   85.748917  -21.198213    1.598076
  0.023006012    0.000000    0.000000    0.000000    0.000000  -83.740346   58.969273  -21.148038   -0.910504
  0.023206413    0.000000    0.000000    0.000000    0.000000  -83.798374   42.721783  -21.288643   -5.367493
  0.023406814    0.000000    0.000000    0.000000    0.000000  -84.931507   61.977245  -21.021479   -8.508412
  0.023607214    0.000000    0.000000    0.000000    0.000000  -83.509840   72.942612  -21.202700  -12.196902
  0.023807615    0.000000    0.000000    0.000000    0.000000  -84.914112   58.168980  -21.124891  -15.977744
  0.024008016    0.000000    0.000000    0.000000    0.000000  -83.935789   56.312759  -21.127563  -19.288198
  0.024208417    0.000000    0.000000    0.000000    0.000000  -85.172769   69.077713  -21.040203  -23.804007
  0.024408818    0.000000    0.000000    0.000000    0.000000  -86.157842   66.430046  -21.060259  -27.790575
  0.024609218    0.000000    0.000000    0.000000    0.000000  -85.419811   59.958401  -21.087752  -31.768147
  0.024809619    0.000000    0.000000    0.000000    0.000000  -85.143525   61.935658  -20.947108  -37.195042
  0.025010020    0.000000    0.000000    0.000000    0.000000  -83.812250   52.584011  -20.927622  -40.580570
  0.025210421    0.000000    0.000000    0.000000    0.000000  -84.407720   55.696583  -20.892758  -45.697361
  0.025410822    0.000000    0.000000    0.000000    0.000000  -84.174841   43.000690  -20.907644  -50.397655
  0.025611222    0.000000    0.000000    0.000000    0.000000  -84.322659   51.381653  -20.882469  -56.238869
  0.025811623    0.000000    0.000000    0.000000    0.000000  -85.953209   57.518368  -20.858385  -61.780640
  0.026012024    0.000000    0.000000    0.000000    0.000000  -83.379672   61.624016  -20.867853  -67.108360
  0.026212425    0.000000    0.000000    0.000000    0.000000  -85.810175   54.529182  -20.908399  -73.121498
  0.026412826    0.000000    0.000000    0.000000    0.000000  -83.465809   62.221050  -20.825753  -79.321907
  0.026613226    0.000000    0.000000    0.000000    0.000000  -84.700075   51.931198  -20.797057  -85.699249
  0.026813627    0.000000    0.000000    0.000000    0.000000  -82.643054   57.779015  -21.058564  -93.292168
  0.027014028    0.000000    0.000000    0.000000    0.000000  -84.982562   63.546768  -21.212218  -99.791451
  0.027214429    0.000000    0.000000    0.000000    0.000000  -84.088385   63.232609  -21.207114 -108.390167
  0.027414830    0.000000    0.000000    0.000000    0.000000  -86.785130   70.326218  -21.514645 -115.179420
  0.027615230    0.000000    0.000000    0.000000    0.000000  -85.533331   45.596176  -21.794992 -123.539131
  0.027815631    0.000000    0.000000    0.000000    0.000000  -84.847940   86.730225  -22.084854 -132.052246
  0.028016032    0.000000    0.000000    0.000000    0.000000  -84.817897   44.703331  -22.430186 -140.027466
  0.028216433    0.000000    0.000000    0.000000    0.000000  -83.408109   65.312622  -23.127629 -147.646698
  0.028416834    0.000000    0.000000    0.000000    0.000000  -84.266189   58.205261  -23.740327 -154.984085
  0.028617234    0.000000    0.000000    0.000000    0.000000  -89.346082   64.831795  -24.394087 -164.078476
  0.028817635    0.000000    0.000000    0.000000    0.000000  -83.731883   66.314468  -25.010821 -170.285065
  0.029018036    0.000000    0.000000    0.000000    0.000000  -85.791655   62.584988  -25.846551 -178.094360
  0.029218437    0.000000    0.000000    0.000000    0.000000  -83.906156   76.500198  -26.512438  176.711044
  0.029418838    0.000000    0.000000    0.000000    0.000000  -87.398497   59.277946  -27.485509  170.438034
  0.029619238    0.000000    0.000000    0.000000    0.000000  -84.938323   58.666599  -28.477627  163.436539
  0.029819639    0.000000    0.000000    0.000000    0.000000  -85.876320   67.729347  -29.109513  159.642471
  0.030020040    0.000000    0.000000    0.000000    0.000000  -86.097419   65.437218  -29.828720  155.553314
  0.030220441    0.000000    0.000000    0.000000    0.000000  -86.314763   64.574524  -30.902989  153.885300
  0.030420842    0.000000    0.000000    0.000000    0.000000  -85.431399   55.802898  -32.033751  147.615356
  0.030621242    0.000000    0.000000    0.000000    0.000000  -84.976448   69.152985  -32.603142  147.709579
  0.030821643    0.000000    0.000000    0.000000    0.000000  -82.213310   56.879700  -33.691664  145.174088
  0.031022044    0.000000    0.000000    0.000000    0.000000  -84.443019   53.135666  -34.342036  144.184784
  0.031222445    0.000000    0.000000    0.000000    0.000000  -84.358528   69.521896  -34.691398  145.201294
  0.031422846    0.000000    0.000000    0.000000    0.000000  -85.321052   63.539486  -35.211815  143.800003
  0.031623246    0.000000    0.000000    0.000000    0.000000  -82.376700   59.355854  -36.263896  142.968796
  0.031823647    0.000000    0.000000    0.000000    0.000000  -82.605148   76.721870  -37.340771  140.395660
  0.032024048    0.000000    0.000000    0.000000    0.000000  -86.719803   71.527702  -37.573705  145.273895
  0.032224449    0.000000    0.000000    0.000000    0.000000  -86.476314   75.311577  -37.936913  144.999313
  0.032424850    0.000000    0.000000    0.000000    0.000000  -88.808877   39.000607  -37.043300  148.612762
  0.032625251    0.000000    0.000000    0.000000    0.000000  -83.843479   52.761227  -37.911427  149.801834
  0.032825651    0.000000    0.000000    0.000000    0.000000  -85.200578   60.691723  -37.953592  150.545746
  0.033026052    0.000000    0.000000    0.000000    0.000000  -84.850870   34.810661  -37.367173  151.275528
  0.033226453    0.000000    0.000000    0.000000    0.000000  -84.057024   83.660805  -37.397494  150.636841
  0.033426854    0.000000    0.000000    0.000000    0.000000  -85.172898   64.424637  -36.872165  150.805176
  0.033627255    0.000000    0.000000    0.000000    0.000000  -87.247597   97.854935  -36.972819  149.391968
  0.033827655    0.000000    0.000000    0.000000    0.000000  -83.008051   53.602837  -36.571270  153.311081
  0.034028056    0.000000    0.000000    0.000000    0.000000  -88.567209   60.673664  -37.648342  147.966995
  0.034228457    0.000000    0.000000    0.000000    0.000000  -86.204647   57.865116  -36.846118  150.753906
  0.034428858    0.000000    0.000000    0.000000    0.000000  -84.365535   81.110718  -36.247164  143.314392
  0.034629259    0.000000    0.000000    0.000000    0.000000  -81.482205   63.632854  -36.102192  140.424820
  0.034829659    0.000000    0.000000    0.000000    0.000000  -82.741698   77.232681  -36.236444  145.715973
  0.035030060    0.000000    0.000000    0.000000    0.000000  -84.821938   70.274208  -35.666043  141.778687
  0.035230461    0.000000    0.000000    0.000000    0.000000  -83.012874   59.049721  -36.574426  141.314529
  0.035430862    0.000000    0.000000    0.000000    0.000000  -82.712804   62.941315  -36.383204  136.476212
  0.035631263    0.000000    0.000000    0.000000    0.000000  -84.778739   61.796841  -35.766705  139.183456
  0.035831663    0.000000    0.000000    0.000000    0.000000  -84.192432   59.703053  -35.679130  135.270004
  0.036032064    0.000000    0.000000    0.000000    0.000000  -85.039647   57.405262  -35.711141  134.828888
  0.036232465    0.000000    0.000000    0.000000    0.000000  -85.167648   63.239937  -35.720776  133.599518
  0.036432866    0.000000    0.000000    0.000000    0.000000  -83.362871   57.667767  -35.370994  131.883911
  0.036633267    0.000000    0.000000    0.000000    0.000000  -82.824492   66.724655  -36.374711  132.760162
  0.036833667    0.000000    0.000000    0.000000    0.000000  -86.563309   86.667763  -35.096846  128.549957
  0.037034068    0.000000    0.000000    0.000000    0.000000  -83.767802   68.780609  -35.949418  128.499115
  0.037234469    0.000000    0.000000    0.000000    0.000000  -88.535420   59.509171  -35.997502  131.092361
  0.037434870    0.000000    0.000000    0.000000    0.000000  -87.050862   47.652260  -35.171810  127.477425
  0.037635271    0.000000    0.000000    0.000000    0.000000  -87.598388   50.315567  -35.718366  121.825905
  0.037835671    0.000000    0.000000    0.000000    0.000000  -84.903212   43.128216  -35.884949  122.997818
  0.038036072    0.000000    0.000000    0.000000    0.000000  -84.106381   70.758720  -35.574779  122.826653
  0.038236473    0.000000    0.000000    0.000000    0.000000  -87.921869   47.870445  -35.804310  120.809570
  0.038436874    0.000000    0.000000    0.000000    0.000000  -83.685515   82.700142  -35.905709  121.066360
  0.038637275    0.000000    0.000000    0.000000    0.000000  -86.835399   64.942375  -35.915043  123.829376
  0.038837675    0.000000    0.000000    0.000000    0.000000  -87.059842   62.951839  -35.857493  121.293686
  0.039038076    0.000000    0.000000    0.000000    0.000000  -89.422387   62.122471  -34.851717  122.252121
  0.039238477    0.000000    0.000000    0.000000    0.000000  -86.993151   77.381302  -35.781258  117.766830
  0.039438878    0.000000    0.000000    0.000000    0.000000  -84.662786   70.008118  -35.715811  116.792557
  0.039639279    0.000000    0.000000    0.000000    0.000000  -83.887068   78.482880  -35.678643  119.093613
  0.039839679    0.000000    0.000000    0.000000    0.000000  -81.164516   72.780815  -35.733416  115.982414
  0.040040080    0.000000    0.000000    0.000000    0.000000  -84.477134   85.312798  -36.501963  115.536011
  0.040240481    0.000000    0.000000    0.000000    0.000000  -84.924449  103.411743  -35.453101  118.271461
  0.040440882    0.000000    0.000000    0.000000    0.000000  -86.918483   71.840309  -35.641685  115.382683
  0.040641283    0.000000    0.000000    0.000000    0.000000  -83.741986   61.639153  -36.223730  116.920692
  0.040841683    0.000000    0.000000    0.000000    0.000000  -84.047355   98.041023  -35.634904  115.689468
  0.041042084    0.000000    0.000000    0.000000    0.000000  -85.751300   77.043816  -35.961181  118.100693
  0.041242485    0.000000    0.000000    0.000000    0.000000  -86.036847   53.438797  -35.633722  116.824112
  0.041442886    0.000000    0.000000    0.000000    0.000000  -83.169277   62.907955  -36.140116  115.018745
  0.041643287    0.000000    0.000000    0.000000    0.000000  -85.407139   77.952454  -35.876475  115.801361
  0.041843687    0.000000    0.000000    0.000000    0.000000  -87.344716   80.189163  -35.815782  120.424744
  0.042044088    0.000000    0.000000    0.000000    0.000000  -85.453144   66.972252  -35.838982  121.763092
  0.042244489    0.000000    0.000000    0.000000    0.000000  -84.726301   87.258430  -35.519892  118.818588
  0.042444890    0.000000    0.000000    0.000000    0.000000  -87.024353   54.157234  -35.592296  117.789780
  0.042645291    0.000000    0.000000    0.000000    0.000000  -87.044856   80.096565  -35.036861  114.744080
  0.042845691    0.000000    0.000000    0.000000    0.000000  -83.781894   79.939980  -35.659689  116.791443
  0.043046092    0.000000    0.000000    0.000000    0.000000  -88.032488   85.701057  -35.584669  115.700607
  0.043246493    0.000000    0.000000    0.000000    0.000000  -86.505853   58.187145  -35.325329  119.120613
  0.043446894    0.000000    0.000000    0.000000    0.000000  -83.358850   51.140770  -35.138423  117.709457
  0.043647295    0.000000    0.000000    0.000000    0.000000  -86.635655   71.428719  -34.786250  114.974091
  0.043847695    0.000000    0.000000    0.000000    0.000000  -86.083893   54.403439  -35.332098  119.232834
  0.044048096    0.000000    0.000000    0.000000    0.000000  -85.517085   72.092972  -34.406064  115.373932
  0.044248497    0.000000    0.000000    0.000000    0.000000  -84.825244   90.684258  -34.852286  116.441666
  0.044448898    0.000000    0.000000    0.000000    0.000000  -87.187893   59.929802  -34.241127  117.191704
  0.044649299    0.000000    0.000000    0.000000    0.000000  -89.782035   39.879547  -34.655407  120.060684
  0.044849699    0.000000    0.000000    0.000000    0.000000  -88.579208   65.679832  -34.080899  117.137611
  0.045050100    0.000000    0.000000    0.000000    0.000000  -86.851539   47.076702  -34.005821  114.655106
  0.045250501    0.000000    0.000000    0.000000    0.000000  -85.072762   72.585808  -34.285353  115.246674
  0.045450902    0.000000    0.000000    0.000000    0.000000  -86.646106   87.288437  -34.200145  118.072632
  0.045651303    0.000000    0.000000    0.000000    0.000000  -88.055985   51.787296  -34.249814  114.675201
  0.045851703    0.000000    0.000000    0.000000    0.000000  -83.560713   65.600349  -33.355700  116.004456
  0.046052104    0.000000    0.000000    0.000000    0.000000  -83.159142   80.693123  -33.034388  117.237518
  0.046252505    0.000000    0.000000    0.000000    0.000000  -85.599353   47.899429  -33.406013  115.982117
  0.046452906    0.000000    0.000000    0.000000    0.000000  -87.849584   64.069885  -33.433364  115.416458
  0.046653307    0.000000    0.000000    0.000000    0.000000  -83.260184   52.962650  -33.414540  109.276100
  0.046853707    0.000000    0.000000    0.000000    0.000000  -92.750131   79.284325  -32.656263  113.242546
  0.047054108    0.000000    0.000000    0.000000    0.000000  -85.524410   50.945362  -32.939628  112.124062
  0.047254509    0.000000    0.000000    0.000000    0.000000  -86.704731   46.183434  -32.870396  112.220421
  0.047454910    0.000000    0.000000    0.000000    0.000000  -84.855900   63.475014  -32.839159  112.918800
  0.047655311    0.000000    0.000000    0.000000    0.000000  -82.800930   60.858356  -32.538657  109.551460
  0.047855711    0.000000    0.000000    0.000000    0.000000  -87.660673   74.280991  -32.134022  112.874619
  0.048056112    0.000000    0.000000    0.000000    0.000000  -88.826090   41.774632  -32.035768  108.713356
  0.048256513    0.000000    0.000000    0.000000    0.000000  -83.088449   72.288773  -31.828170  107.736603
  0.048456914    0.000000    0.000000    0.000000    0.000000  -86.215386   60.220058  -31.851445  106.674568
  0.048657315    0.000000    0.000000    0.000000    0.000000  -84.204885   66.302200  -31.688122  106.996811
  0.048857715    0.000000    0.000000    0.000000    0.000000  -85.729813  100.386757  -31.839256  108.462936
  0.049058116    0.000000    0.000000    0.000000    0.000000  -82.916339   64.398026  -31.411979  107.218819
  0.049258517    0.000000    0.000000    0.000000    0.000000  -85.722452   49.961445  -31.796720  105.903214
  0.049458918    0.000000    0.000000    0.000000    0.000000  -86.050087   82.559799  -31.350455  103.530685
  0.049659319    0.000000    0.000000    0.000000    0.000000  -87.676597   65.651398  -31.481504  104.408409
  0.049859719    0.000000    0.000000    0.000000    0.000000  -88.629895   46.948734  -31.187432  103.442650
  0.050060120    0.000000    0.000000    0.000000    0.000000  -86.194791   49.965744  -30.922313  101.599197
  0.050260521    0.000000    0.000000    0.000000    0.000000  -85.980133   71.065277  -31.172392  102.040695
  0.050460922    0.000000    0.000000    0.000000    0.000000  -83.599538   59.404957  -30.871841  100.082970
  0.050661323    0.000000    0.000000    0.000000    0.000000  -85.111846   71.683136  -30.783145  101.582581
  0.050861723    0.000000    0.000000    0.000000    0.000000  -87.751662   77.503036  -30.853380   98.955429
  0.051062124    0.000000    0.000000    0.000000    0.000000  -90.598677   45.095669  -30.734134   98.836823
  0.051262525    0.000000    0.000000    0.000000    0.000000  -85.641730   63.681229  -30.581292   96.807785
  0.051462926    0.000000    0.000000    0.000000    0.000000  -85.746485   61.032337  -30.757957   98.198112
  0.051663327    0.000000    0.000000    0.000000    0.000000  -85.525705   61.678898  -30.184148   94.114792
  0.051863727    0.000000    0.000000    0.000000    0.000000  -85.307714   67.554871  -30.318894   92.933090
  0.052064128    0.000000    0.000000    0.000000    0.000000  -86.163249   80.102394  -30.499359   93.022339
  0.052264529    0.000000    0.000000    0.000000    0.000000  -85.420630   70.118309  -30.318179   93.250305
  0.052464930    0.000000    0.000000    0.000000    0.000000  -88.320092   52.328091  -30.130323   90.571548
  0.052665331    0.000000    0.000000    0.000000    0.000000  -89.546503   57.156746  -30.267803   90.187431
  0.052865731    0.000000    0.000000    0.000000    0.000000  -84.343958   70.150284  -30.322308   87.417297
