! Anritsu VNA Master:                     Model: MS2036C/10/77
! SN:                                  1601066
! /card0/usr/18may12.lna.rl/254a.lna.rl.redo.s2p
! Existing Calibration Information:
! TYPE:                         Current Settings,       Active Cal Settings
! TIME:             	   05/13/2018 11:27:03 AM,    05/13/2018 11:20:22 AM
! INTERNAL TEMP:    	                   47.8 C,                    47.3 C
! # POINTS:         	                      500,                       500
! START FREQ:       	               20.000 MHz,                20.000 MHz
! STOP FREQ:        	              120.000 MHz,               120.000 MHz
! SOURCE POWER:     	                      Low,                       Low
! IFBW:             	                    10 Hz,                     10 Hz
! AVG FACTOR:       	                       1 ,                        1 
! REF PLANE 1:      	                     0 mm,                      0 mm
! REF PLANE 2:      	                     0 mm,                      0 mm
! CAL TYPE:         	                 Full S22,                  Full S22
! CAL METHOD:       	                     SOLT,                      SOLT
! CAL LINE TYPE:    	                     Coax,                      Coax
! DUT PORT 1:       	                K-Conn(M),                 K-Conn(M)
! DUT PORT 2:       	                K-Conn(M),                 K-Conn(M)
! CAL STATUS:       	        OK: Accuracy High,                        --
# GHZ S DB R 50.0
! FREQ.GHZ       S11DB        S11A       S21DB        S21A       S12DB        S12A       S22DB        S22A
  0.020000000    0.000000    0.000000    0.000000    0.000000  -82.505135   73.258537  -19.181140   20.766796
  0.020200401    0.000000    0.000000    0.000000    0.000000  -82.874958   48.519711  -19.085991   18.818306
  0.020400802    0.000000    0.000000    0.000000    0.000000  -80.902849   66.797729  -19.103464   16.609653
  0.020601202    0.000000    0.000000    0.000000    0.000000  -81.979185   71.395622  -18.975099   14.825508
  0.020801603    0.000000    0.000000    0.000000    0.000000  -82.085310   67.969070  -18.860301   13.012662
  0.021002004    0.000000    0.000000    0.000000    0.000000  -82.348538   59.110569  -18.809464   10.834217
  0.021202405    0.000000    0.000000    0.000000    0.000000  -82.117070   66.431435  -18.742109    8.468335
  0.021402806    0.000000    0.000000    0.000000    0.000000  -84.279538   59.382607  -18.670009    6.778128
  0.021603206    0.000000    0.000000    0.000000    0.000000  -82.123681   59.918087  -18.540808    3.929933
  0.021803607    0.000000    0.000000    0.000000    0.000000  -80.801259   70.132393  -18.475894    2.012771
  0.022004008    0.000000    0.000000    0.000000    0.000000  -84.710580   65.288033  -18.484643   -0.291816
  0.022204409    0.000000    0.000000    0.000000    0.000000  -85.476022   70.992813  -18.324651   -2.428597
  0.022404810    0.000000    0.000000    0.000000    0.000000  -82.736595   59.476749  -18.300631   -4.823905
  0.022605210    0.000000    0.000000    0.000000    0.000000  -82.791369   57.996666  -18.241327   -7.145354
  0.022805611    0.000000    0.000000    0.000000    0.000000  -84.507449   66.384697  -18.152315   -9.164733
  0.023006012    0.000000    0.000000    0.000000    0.000000  -82.017515   48.930477  -18.096451  -11.568823
  0.023206413    0.000000    0.000000    0.000000    0.000000  -81.936872   73.603409  -18.091961  -14.324373
  0.023406814    0.000000    0.000000    0.000000    0.000000  -83.924297   61.871616  -18.018049  -17.001139
  0.023607214    0.000000    0.000000    0.000000    0.000000  -84.783202   57.224232  -17.949778  -19.740778
  0.023807615    0.000000    0.000000    0.000000    0.000000  -82.531613   78.096512  -17.953640  -22.723707
  0.024008016    0.000000    0.000000    0.000000    0.000000  -84.432828   49.415207  -17.891109  -25.086823
  0.024208417    0.000000    0.000000    0.000000    0.000000  -81.030848   68.103073  -17.916700  -28.014086
  0.024408818    0.000000    0.000000    0.000000    0.000000  -85.415734   52.711563  -17.829640  -31.464230
  0.024609218    0.000000    0.000000    0.000000    0.000000  -84.257098   57.954292  -17.782647  -33.924770
  0.024809619    0.000000    0.000000    0.000000    0.000000  -85.971456   65.198624  -17.811114  -37.880951
  0.025010020    0.000000    0.000000    0.000000    0.000000  -85.284510   62.117123  -17.811648  -40.929043
  0.025210421    0.000000    0.000000    0.000000    0.000000  -83.138745   77.710358  -17.863234  -44.615417
  0.025410822    0.000000    0.000000    0.000000    0.000000  -84.122991   66.439049  -17.890504  -48.689804
  0.025611222    0.000000    0.000000    0.000000    0.000000  -83.542321   52.447582  -17.911947  -53.067661
  0.025811623    0.000000    0.000000    0.000000    0.000000  -84.425636   70.333054  -17.928722  -57.259190
  0.026012024    0.000000    0.000000    0.000000    0.000000  -84.176488   84.178741  -18.109559  -61.443283
  0.026212425    0.000000    0.000000    0.000000    0.000000  -85.187614   33.162586  -18.181200  -66.141876
  0.026412826    0.000000    0.000000    0.000000    0.000000  -83.793900   62.296803  -18.447824  -70.810791
  0.026613226    0.000000    0.000000    0.000000    0.000000  -85.481928   36.488228  -18.629337  -76.869057
  0.026813627    0.000000    0.000000    0.000000    0.000000  -83.460840   58.657181  -19.010544  -82.249626
  0.027014028    0.000000    0.000000    0.000000    0.000000  -83.884503   84.008957  -19.480592  -88.235931
  0.027214429    0.000000    0.000000    0.000000    0.000000  -85.148735   46.941238  -19.965997  -94.534538
  0.027414830    0.000000    0.000000    0.000000    0.000000  -83.603459   66.501228  -20.623507 -100.540421
  0.027615230    0.000000    0.000000    0.000000    0.000000  -86.523230   61.918388  -21.471633 -106.257919
  0.027815631    0.000000    0.000000    0.000000    0.000000  -86.024108   63.237465  -22.473068 -111.657295
  0.028016032    0.000000    0.000000    0.000000    0.000000  -85.369100   65.797348  -23.503624 -119.120926
  0.028216433    0.000000    0.000000    0.000000    0.000000  -84.082293   59.692955  -24.903684 -125.013252
  0.028416834    0.000000    0.000000    0.000000    0.000000  -83.200732   60.756630  -26.637426 -128.886017
  0.028617234    0.000000    0.000000    0.000000    0.000000  -86.576428   56.329140  -28.519974 -135.377304
  0.028817635    0.000000    0.000000    0.000000    0.000000  -84.837085   37.220558  -30.860987 -133.833649
  0.029018036    0.000000    0.000000    0.000000    0.000000  -84.309033   63.223278  -33.308566 -134.295303
  0.029218437    0.000000    0.000000    0.000000    0.000000  -83.787959   59.987305  -36.065647 -127.945496
  0.029418838    0.000000    0.000000    0.000000    0.000000  -83.787680   35.011391  -40.245553 -109.345253
  0.029619238    0.000000    0.000000    0.000000    0.000000  -88.369325   65.439377  -41.095133  -79.870903
  0.029819639    0.000000    0.000000    0.000000    0.000000  -85.784625   67.276779  -40.588317  -51.209740
  0.030020040    0.000000    0.000000    0.000000    0.000000  -85.448883   65.475784  -37.009689  -41.080223
  0.030220441    0.000000    0.000000    0.000000    0.000000  -85.959472   69.079254  -36.072754  -37.454010
  0.030420842    0.000000    0.000000    0.000000    0.000000  -86.994965   55.359898  -34.525834  -34.913342
  0.030621242    0.000000    0.000000    0.000000    0.000000  -88.360645   52.005886  -32.913759  -36.089390
  0.030821643    0.000000    0.000000    0.000000    0.000000  -84.483073   43.984146  -32.349425  -34.381416
  0.031022044    0.000000    0.000000    0.000000    0.000000  -87.098717   72.569420  -31.628961  -38.492180
  0.031222445    0.000000    0.000000    0.000000    0.000000  -83.600150   65.108299  -31.148315  -39.111664
  0.031422846    0.000000    0.000000    0.000000    0.000000  -84.486134   53.787209  -30.764748  -40.652500
  0.031623246    0.000000    0.000000    0.000000    0.000000  -82.960015   56.904751  -30.353652  -42.902504
  0.031823647    0.000000    0.000000    0.000000    0.000000  -84.413678   57.759186  -30.625321  -44.119907
  0.032024048    0.000000    0.000000    0.000000    0.000000  -83.692564   76.203789  -30.481940  -46.211754
  0.032224449    0.000000    0.000000    0.000000    0.000000  -85.154132   52.120789  -30.233093  -48.458363
  0.032424850    0.000000    0.000000    0.000000    0.000000  -83.993598   55.559181  -29.998829  -47.823311
  0.032625251    0.000000    0.000000    0.000000    0.000000  -82.524515   73.046379  -30.314028  -49.485199
  0.032825651    0.000000    0.000000    0.000000    0.000000  -86.584956   68.885849  -30.191927  -50.624653
  0.033026052    0.000000    0.000000    0.000000    0.000000  -86.240659   66.199989  -30.111210  -50.473507
  0.033226453    0.000000    0.000000    0.000000    0.000000  -84.191773   71.592468  -30.381164  -52.541061
  0.033426854    0.000000    0.000000    0.000000    0.000000  -86.548109   76.947624  -30.691918  -57.394119
  0.033627255    0.000000    0.000000    0.000000    0.000000  -82.358835   76.717117  -30.900412  -56.557533
  0.033827655    0.000000    0.000000    0.000000    0.000000  -85.231157   52.603252  -30.853265  -56.287643
  0.034028056    0.000000    0.000000    0.000000    0.000000  -84.729036   59.305153  -31.002164  -59.065052
  0.034228457    0.000000    0.000000    0.000000    0.000000  -84.513636   78.076004  -31.426573  -56.699493
  0.034428858    0.000000    0.000000    0.000000    0.000000  -84.389161   71.133553  -31.001867  -56.843273
  0.034629259    0.000000    0.000000    0.000000    0.000000  -82.529815   57.887436  -31.369286  -58.369915
  0.034829659    0.000000    0.000000    0.000000    0.000000  -85.042101   65.076187  -31.528668  -59.286385
  0.035030060    0.000000    0.000000    0.000000    0.000000  -83.067779   60.459736  -31.890501  -59.691750
  0.035230461    0.000000    0.000000    0.000000    0.000000  -85.517304   65.109711  -31.930305  -59.120026
  0.035430862    0.000000    0.000000    0.000000    0.000000  -84.432804   60.706074  -31.980995  -59.216183
  0.035631263    0.000000    0.000000    0.000000    0.000000  -87.334688   67.697403  -32.395273  -58.956902
  0.035831663    0.000000    0.000000    0.000000    0.000000  -84.378250   57.672211  -32.214179  -57.286373
  0.036032064    0.000000    0.000000    0.000000    0.000000  -85.030627   67.818504  -32.906075  -60.562366
  0.036232465    0.000000    0.000000    0.000000    0.000000  -83.174876   51.269119  -32.469212  -57.847672
  0.036432866    0.000000    0.000000    0.000000    0.000000  -82.481383   50.289108  -32.515145  -55.513828
  0.036633267    0.000000    0.000000    0.000000    0.000000  -86.753151   48.180901  -32.820944  -55.977974
  0.036833667    0.000000    0.000000    0.000000    0.000000  -86.508003   50.592152  -32.934738  -56.290840
  0.037034068    0.000000    0.000000    0.000000    0.000000  -81.147626   56.109425  -32.742313  -58.411114
  0.037234469    0.000000    0.000000    0.000000    0.000000  -82.313927   54.289463  -32.659925  -55.930012
  0.037434870    0.000000    0.000000    0.000000    0.000000  -83.521147   69.457870  -33.006200  -58.934956
  0.037635271    0.000000    0.000000    0.000000    0.000000  -84.313699   61.002762  -32.835532  -56.323723
  0.037835671    0.000000    0.000000    0.000000    0.000000  -84.336744   82.488335  -32.891538  -54.136471
  0.038036072    0.000000    0.000000    0.000000    0.000000  -86.454058   63.975590  -32.993351  -54.660912
  0.038236473    0.000000    0.000000    0.000000    0.000000  -83.563794   82.529610  -33.357763  -57.100224
  0.038436874    0.000000    0.000000    0.000000    0.000000  -82.939918   65.643288  -33.358485  -54.050205
  0.038637275    0.000000    0.000000    0.000000    0.000000  -85.621160   57.852623  -33.213449  -53.658325
  0.038837675    0.000000    0.000000    0.000000    0.000000  -85.197261   65.571312  -33.650246  -54.201031
  0.039038076    0.000000    0.000000    0.000000    0.000000  -84.062842   79.749573  -33.279242  -52.268105
  0.039238477    0.000000    0.000000    0.000000    0.000000  -85.369011   55.115639  -33.293694  -54.829033
  0.039438878    0.000000    0.000000    0.000000    0.000000  -84.791560   66.907455  -33.220695  -53.297379
  0.039639279    0.000000    0.000000    0.000000    0.000000  -89.312094   49.589779  -32.948717  -55.666370
  0.039839679    0.000000    0.000000    0.000000    0.000000  -86.530311   75.217529  -33.072155  -55.065655
  0.040040080    0.000000    0.000000    0.000000    0.000000  -86.652617   57.731621  -33.071426  -53.738686
  0.040240481    0.000000    0.000000    0.000000    0.000000  -85.747313   74.396164  -33.020842  -53.233082
  0.040440882    0.000000    0.000000    0.000000    0.000000  -82.744603   59.154942  -33.021219  -51.862198
  0.040641283    0.000000    0.000000    0.000000    0.000000  -84.210779   75.132362  -32.778861  -53.674564
  0.040841683    0.000000    0.000000    0.000000    0.000000  -82.052589   64.131592  -33.403336  -55.190056
  0.041042084    0.000000    0.000000    0.000000    0.000000  -87.576776   56.776649  -32.957837  -55.422886
  0.041242485    0.000000    0.000000    0.000000    0.000000  -89.644116   72.264175  -33.187447  -57.893044
  0.041442886    0.000000    0.000000    0.000000    0.000000  -82.764686   64.327980  -33.531763  -60.152493
  0.041643287    0.000000    0.000000    0.000000    0.000000  -88.953217   53.147320  -33.603150  -58.567173
  0.041843687    0.000000    0.000000    0.000000    0.000000  -85.448909   74.976746  -33.351983  -60.664272
  0.042044088    0.000000    0.000000    0.000000    0.000000  -84.580001   43.976246  -33.341132  -59.770767
  0.042244489    0.000000    0.000000    0.000000    0.000000  -84.687746   62.677246  -33.730784  -59.990891
  0.042444890    0.000000    0.000000    0.000000    0.000000  -85.635287   88.920715  -33.751893  -59.329342
  0.042645291    0.000000    0.000000    0.000000    0.000000  -86.544415   89.991707  -33.262979  -63.857063
  0.042845691    0.000000    0.000000    0.000000    0.000000  -91.128953   45.865952  -34.139230  -63.028160
  0.043046092    0.000000    0.000000    0.000000    0.000000  -85.264022   53.603405  -33.735631  -64.826752
  0.043246493    0.000000    0.000000    0.000000    0.000000  -83.716895   80.082771  -33.889422  -63.286880
  0.043446894    0.000000    0.000000    0.000000    0.000000  -85.512986   52.779339  -34.286264  -64.922478
  0.043647295    0.000000    0.000000    0.000000    0.000000  -90.373083   72.539772  -34.724106  -63.152729
  0.043847695    0.000000    0.000000    0.000000    0.000000  -90.199525   48.737789  -34.196450  -67.451859
  0.044048096    0.000000    0.000000    0.000000    0.000000  -86.205808   63.235489  -34.538661  -69.204880
  0.044248497    0.000000    0.000000    0.000000    0.000000  -90.622785   72.610092  -34.471244  -68.596809
  0.044448898    0.000000    0.000000    0.000000    0.000000  -88.128519   83.319893  -34.831056  -68.145081
  0.044649299    0.000000    0.000000    0.000000    0.000000  -93.834687   68.455635  -34.987562  -69.219627
  0.044849699    0.000000    0.000000    0.000000    0.000000  -84.705895   58.418491  -35.094219  -70.471237
  0.045050100    0.000000    0.000000    0.000000    0.000000  -85.156233   57.455544  -35.662525  -70.968483
  0.045250501    0.000000    0.000000    0.000000    0.000000  -84.715276   81.005463  -35.154554  -68.057564
  0.045450902    0.000000    0.000000    0.000000    0.000000  -84.014184   73.553505  -35.680688  -70.497894
  0.045651303    0.000000    0.000000    0.000000    0.000000  -87.627805   74.002083  -36.291024  -70.246384
  0.045851703    0.000000    0.000000    0.000000    0.000000  -88.138204   72.692078  -36.318354  -72.017365
  0.046052104    0.000000    0.000000    0.000000    0.000000  -84.664189   57.943821  -37.188458  -70.096977
  0.046252505    0.000000    0.000000    0.000000    0.000000  -85.661834   77.404404  -37.759328  -73.848587
  0.046452906    0.000000    0.000000    0.000000    0.000000  -84.987544   74.664619  -37.935180  -73.445320
  0.046653307    0.000000    0.000000    0.000000    0.000000  -83.505619   62.864899  -38.671754  -72.935089
  0.046853707    0.000000    0.000000    0.000000    0.000000  -84.891692   78.640907  -37.859357  -71.309387
  0.047054108    0.000000    0.000000    0.000000    0.000000  -83.694716   82.793900  -38.264202  -71.724426
  0.047254509    0.000000    0.000000    0.000000    0.000000  -88.612971   87.863731  -39.459896  -69.315666
  0.047454910    0.000000    0.000000    0.000000    0.000000  -85.032419   59.345882  -39.727241  -68.462509
  0.047655311    0.000000    0.000000    0.000000    0.000000  -85.310772   52.893223  -39.632885  -69.027664
  0.047855711    0.000000    0.000000    0.000000    0.000000  -85.217369   58.969898  -39.862693  -66.688087
  0.048056112    0.000000    0.000000    0.000000    0.000000  -86.407574   77.519173  -40.401525  -69.808594
  0.048256513    0.000000    0.000000    0.000000    0.000000  -83.240252   57.708000  -39.852118  -61.924633
  0.048456914    0.000000    0.000000    0.000000    0.000000  -87.806182   63.289993  -42.276763  -66.765533
  0.048657315    0.000000    0.000000    0.000000    0.000000  -84.054763   67.890083  -42.703002  -54.684849
  0.048857715    0.000000    0.000000    0.000000    0.000000  -84.640236   67.744873  -42.328886  -66.754524
  0.049058116    0.000000    0.000000    0.000000    0.000000  -86.736043   69.667648  -42.921509  -60.900227
  0.049258517    0.000000    0.000000    0.000000    0.000000  -86.825841   47.819252  -42.440947  -50.867672
  0.049458918    0.000000    0.000000    0.000000    0.000000  -86.520783   73.338531  -44.109028  -50.958015
  0.049659319    0.000000    0.000000    0.000000    0.000000  -86.100359   72.084518  -45.117356  -45.419388
  0.049859719    0.000000    0.000000    0.000000    0.000000  -84.810553   42.221062  -44.303850  -55.236275
  0.050060120    0.000000    0.000000    0.000000    0.000000  -85.793582   80.154037  -42.611372  -32.332638
  0.050260521    0.000000    0.000000    0.000000    0.000000  -86.712776   66.572647  -43.825154  -32.882221
  0.050460922    0.000000    0.000000    0.000000    0.000000  -85.477813   35.894928  -43.822097  -19.279470
  0.050661323    0.000000    0.000000    0.000000    0.000000  -85.992118   68.355621  -42.822331  -29.616377
  0.050861723    0.000000    0.000000    0.000000    0.000000  -86.036697   47.896229  -43.794589  -10.040028
  0.051062124    0.000000    0.000000    0.000000    0.000000  -84.745899   71.131859  -43.843875  -17.546137
  0.051262525    0.000000    0.000000    0.000000    0.000000  -85.815481   76.269447  -45.130862   -7.975224
  0.051462926    0.000000    0.000000    0.000000    0.000000  -88.497555   61.918259  -43.527194   -6.004844
  0.051663327    0.000000    0.000000    0.000000    0.000000  -87.170330   56.580688  -43.031539   -4.190581
  0.051863727    0.000000    0.000000    0.000000    0.000000  -83.054708   64.815582  -41.276037   -6.006173
  0.052064128    0.000000    0.000000    0.000000    0.000000  -86.253929   66.368248  -41.056639   -2.135907
  0.052264529    0.000000    0.000000    0.000000    0.000000  -84.267790   71.565704  -40.967223    7.096617
  0.052464930    0.000000    0.000000    0.000000    0.000000  -85.423259   80.671829  -41.156980    1.002633
  0.052665331    0.000000    0.000000    0.000000    0.000000  -85.062250   53.845798  -39.726870   -2.566164
  0.052865731    0.000000    0.000000    0.000000    0.000000  -86.348333   68.838036  -39.486801    5.181204
