! Anritsu VNA Master:                     Model: MS2036C/10/77
! SN:                                  1601066
! /bd0/18may26.balun/4a.me1.s2p
! Existing Calibration Information:
! TYPE:                         Current Settings,       Active Cal Settings
! TIME:             	   05/26/2018 02:57:21 PM,    05/26/2018 02:51:55 PM
! INTERNAL TEMP:    	                   59.8 C,                    59.5 C
! # POINTS:         	                      500,                       500
! START FREQ:       	               20.000 MHz,                20.000 MHz
! STOP FREQ:        	              120.000 MHz,               120.000 MHz
! SOURCE POWER:     	                     High,                      High
! IFBW:             	                    50 Hz,                     50 Hz
! AVG FACTOR:       	                       1 ,                        1 
! REF PLANE 1:      	                     0 mm,                      0 mm
! REF PLANE 2:      	                     0 mm,                      0 mm
! CAL TYPE:         	                 Full S11,                  Full S11
! CAL METHOD:       	                     SOLT,                      SOLT
! CAL LINE TYPE:    	                     Coax,                      Coax
! DUT PORT 1:       	                K-Conn(M),                 K-Conn(M)
! DUT PORT 2:       	                K-Conn(M),                 K-Conn(M)
! CAL STATUS:       	        OK: Accuracy High,                        --
# GHZ S DB R 50.0
! FREQ.GHZ       S11DB        S11A       S21DB        S21A       S12DB        S12A       S22DB        S22A
  0.020000000   -0.654375 -126.387596  -90.817061   30.620567    0.000000    0.000000    0.000000    0.000000
  0.020200401   -0.653205 -127.912575  -91.523122   29.287113    0.000000    0.000000    0.000000    0.000000
  0.020400802   -0.650703 -129.376495  -92.056678   28.376160    0.000000    0.000000    0.000000    0.000000
  0.020601202   -0.651314 -130.850311  -92.055007   28.894053    0.000000    0.000000    0.000000    0.000000
  0.020801603   -0.654307 -132.346039  -92.858481   29.203102    0.000000    0.000000    0.000000    0.000000
  0.021002004   -0.660382 -133.879379  -93.214088   26.952042    0.000000    0.000000    0.000000    0.000000
  0.021202405   -0.666981 -135.414398  -92.942750   33.402359    0.000000    0.000000    0.000000    0.000000
  0.021402806   -0.671226 -136.965714  -92.888325   28.806402    0.000000    0.000000    0.000000    0.000000
  0.021603206   -0.675909 -138.518860  -92.945521   32.733940    0.000000    0.000000    0.000000    0.000000
  0.021803607   -0.684489 -140.073074  -92.838396   37.903843    0.000000    0.000000    0.000000    0.000000
  0.022004008   -0.689086 -141.630051  -92.711145   34.230576    0.000000    0.000000    0.000000    0.000000
  0.022204409   -0.691393 -143.236664  -93.069155   37.449635    0.000000    0.000000    0.000000    0.000000
  0.022404810   -0.692326 -144.836517  -93.108164   34.476013    0.000000    0.000000    0.000000    0.000000
  0.022605210   -0.693533 -146.430878  -92.952888   36.082355    0.000000    0.000000    0.000000    0.000000
  0.022805611   -0.697283 -148.011505  -92.937220   36.039814    0.000000    0.000000    0.000000    0.000000
  0.023006012   -0.698536 -149.585464  -92.447829   35.604210    0.000000    0.000000    0.000000    0.000000
  0.023206413   -0.704509 -151.181946  -92.387107   30.739492    0.000000    0.000000    0.000000    0.000000
  0.023406814   -0.711920 -152.808182  -93.128389   27.044451    0.000000    0.000000    0.000000    0.000000
  0.023607214   -0.718478 -154.429733  -92.863175   27.476450    0.000000    0.000000    0.000000    0.000000
  0.023807615   -0.726475 -156.062424  -93.235289   30.450548    0.000000    0.000000    0.000000    0.000000
  0.024008016   -0.735638 -157.678635  -93.021041   27.299595    0.000000    0.000000    0.000000    0.000000
  0.024208417   -0.746104 -159.315521  -93.213432   22.007904    0.000000    0.000000    0.000000    0.000000
  0.024408818   -0.757264 -160.951416  -93.077908   21.507479    0.000000    0.000000    0.000000    0.000000
  0.024609218   -0.767874 -162.622757  -94.420190   18.656857    0.000000    0.000000    0.000000    0.000000
  0.024809619   -0.776736 -164.322479  -93.903717   18.199205    0.000000    0.000000    0.000000    0.000000
  0.025010020   -0.781893 -166.003418  -94.014374   19.335371    0.000000    0.000000    0.000000    0.000000
  0.025210421   -0.791483 -167.700485  -94.810169   21.374992    0.000000    0.000000    0.000000    0.000000
  0.025410822   -0.800331 -169.386841  -94.927413   19.879053    0.000000    0.000000    0.000000    0.000000
  0.025611222   -0.811795 -171.089691  -95.679393   19.709894    0.000000    0.000000    0.000000    0.000000
  0.025811623   -0.822521 -172.799316  -94.989310   20.181181    0.000000    0.000000    0.000000    0.000000
  0.026012024   -0.836035 -174.537842  -95.946012   17.276859    0.000000    0.000000    0.000000    0.000000
  0.026212425   -0.849427 -176.274155  -95.476162   22.129368    0.000000    0.000000    0.000000    0.000000
  0.026412826   -0.865594 -178.018082  -95.250107   19.747881    0.000000    0.000000    0.000000    0.000000
  0.026613226   -0.883148 -179.791458  -95.647273   19.229319    0.000000    0.000000    0.000000    0.000000
  0.026813627   -0.899083  178.425613  -95.216938   22.780687    0.000000    0.000000    0.000000    0.000000
  0.027014028   -0.912807  176.665939  -96.075315   20.428953    0.000000    0.000000    0.000000    0.000000
  0.027214429   -0.928408  174.897400  -95.235450   20.318659    0.000000    0.000000    0.000000    0.000000
  0.027414830   -0.941742  173.113617  -95.187207   23.333216    0.000000    0.000000    0.000000    0.000000
  0.027615230   -0.958933  171.327393  -95.499492   21.416073    0.000000    0.000000    0.000000    0.000000
  0.027815631   -0.977869  169.517090  -95.317089   26.615355    0.000000    0.000000    0.000000    0.000000
  0.028016032   -0.996857  167.682846  -95.050044   18.789520    0.000000    0.000000    0.000000    0.000000
  0.028216433   -1.014955  165.833176  -95.594330   19.839973    0.000000    0.000000    0.000000    0.000000
  0.028416834   -1.035377  163.988754  -96.093663   15.371045    0.000000    0.000000    0.000000    0.000000
  0.028617234   -1.059050  162.149307  -96.918689   16.651709    0.000000    0.000000    0.000000    0.000000
  0.028817635   -1.081176  160.274963  -95.727705   15.660133    0.000000    0.000000    0.000000    0.000000
  0.029018036   -1.105426  158.394348  -96.479203   10.058524    0.000000    0.000000    0.000000    0.000000
  0.029218437   -1.127884  156.486084  -95.605381   18.114058    0.000000    0.000000    0.000000    0.000000
  0.029418838   -1.150163  154.577240  -97.917567   16.353798    0.000000    0.000000    0.000000    0.000000
  0.029619238   -1.171124  152.699203  -97.761337   13.572528    0.000000    0.000000    0.000000    0.000000
  0.029819639   -1.194034  150.813110  -96.812691    9.539604    0.000000    0.000000    0.000000    0.000000
  0.030020040   -1.216104  148.918503  -98.253637   18.298172    0.000000    0.000000    0.000000    0.000000
  0.030220441   -1.242936  147.033325  -98.178643   19.019341    0.000000    0.000000    0.000000    0.000000
  0.030420842   -1.274051  145.140915  -98.607655   18.999828    0.000000    0.000000    0.000000    0.000000
  0.030621242   -1.312345  143.203171  -98.045657   22.767218    0.000000    0.000000    0.000000    0.000000
  0.030821643   -1.348319  141.218307  -97.664700   12.991753    0.000000    0.000000    0.000000    0.000000
  0.031022044   -1.381377  139.206451  -98.224948    8.933167    0.000000    0.000000    0.000000    0.000000
  0.031222445   -1.407521  137.168488  -97.866749   15.094536    0.000000    0.000000    0.000000    0.000000
  0.031422846   -1.432979  135.135605  -97.978263   13.153091    0.000000    0.000000    0.000000    0.000000
  0.031623246   -1.459191  133.111816  -97.865686   10.951398    0.000000    0.000000    0.000000    0.000000
  0.031823647   -1.482115  131.110077  -97.772283   16.938744    0.000000    0.000000    0.000000    0.000000
  0.032024048   -1.502914  129.111633  -98.574451   10.757513    0.000000    0.000000    0.000000    0.000000
  0.032224449   -1.528262  127.131050  -96.670391    3.431217    0.000000    0.000000    0.000000    0.000000
  0.032424850   -1.555139  125.182289  -96.837539    8.116449    0.000000    0.000000    0.000000    0.000000
  0.032625251   -1.589256  123.204361  -96.980343    9.196521    0.000000    0.000000    0.000000    0.000000
  0.032825651   -1.625768  121.225792  -97.647116   16.258698    0.000000    0.000000    0.000000    0.000000
  0.033026052   -1.667592  119.258835  -97.786358   16.006660    0.000000    0.000000    0.000000    0.000000
  0.033226453   -1.710056  117.257462  -97.254197   13.349799    0.000000    0.000000    0.000000    0.000000
  0.033426854   -1.756769  115.236496  -99.056972    9.990674    0.000000    0.000000    0.000000    0.000000
  0.033627255   -1.802789  113.186096  -98.576293   12.881395    0.000000    0.000000    0.000000    0.000000
  0.033827655   -1.845341  111.093094  -98.544326   11.262941    0.000000    0.000000    0.000000    0.000000
  0.034028056   -1.887391  109.018036  -99.443301   14.568568    0.000000    0.000000    0.000000    0.000000
  0.034228457   -1.932646  106.908493  -99.383115   12.865988    0.000000    0.000000    0.000000    0.000000
  0.034428858   -1.975281  104.829758  -98.978504    9.935390    0.000000    0.000000    0.000000    0.000000
  0.034629259   -2.015076  102.751770  -99.626405    7.657696    0.000000    0.000000    0.000000    0.000000
  0.034829659   -2.050220  100.683311  -98.693273    0.523727    0.000000    0.000000    0.000000    0.000000
  0.035030060   -2.082333   98.652695 -100.886421   13.246039    0.000000    0.000000    0.000000    0.000000
  0.035230461   -2.125563   96.659195  -98.312328   13.593741    0.000000    0.000000    0.000000    0.000000
  0.035430862   -2.172208   94.646065  -99.448391   19.267817    0.000000    0.000000    0.000000    0.000000
  0.035631263   -2.225378   92.623772  -99.941680   11.790249    0.000000    0.000000    0.000000    0.000000
  0.035831663   -2.284429   90.564384  -99.575985    7.409358    0.000000    0.000000    0.000000    0.000000
  0.036032064   -2.341223   88.472885  -99.109864   12.541485    0.000000    0.000000    0.000000    0.000000
  0.036232465   -2.397321   86.313042  -99.077944    5.124603    0.000000    0.000000    0.000000    0.000000
  0.036432866   -2.449435   84.163193  -99.369897   10.240801    0.000000    0.000000    0.000000    0.000000
  0.036633267   -2.500339   81.975159  -99.331026   11.379481    0.000000    0.000000    0.000000    0.000000
  0.036833667   -2.547225   79.783203  -98.280600    7.705147    0.000000    0.000000    0.000000    0.000000
  0.037034068   -2.589666   77.624420  -98.534613    9.616800    0.000000    0.000000    0.000000    0.000000
  0.037234469   -2.627962   75.482674  -98.362117    7.308134    0.000000    0.000000    0.000000    0.000000
  0.037434870   -2.668450   73.364899 -100.036555    6.402270    0.000000    0.000000    0.000000    0.000000
  0.037635271   -2.707454   71.264267  -98.841000   -0.392701    0.000000    0.000000    0.000000    0.000000
  0.037835671   -2.754659   69.134140  -99.323365   -1.869059    0.000000    0.000000    0.000000    0.000000
  0.038036072   -2.811603   67.039215 -100.312900    4.967492    0.000000    0.000000    0.000000    0.000000
  0.038236473   -2.867397   65.013931 -101.204186    5.124708    0.000000    0.000000    0.000000    0.000000
  0.038436874   -2.924603   62.955746 -101.067375    2.859801    0.000000    0.000000    0.000000    0.000000
  0.038637275   -2.985664   60.916256 -102.111326    7.449064    0.000000    0.000000    0.000000    0.000000
  0.038837675   -3.045379   58.807991 -100.767189    5.978120    0.000000    0.000000    0.000000    0.000000
  0.039038076   -3.104408   56.698757  -99.970106    6.201281    0.000000    0.000000    0.000000    0.000000
  0.039238477   -3.157551   54.545494 -100.816892  -14.143431    0.000000    0.000000    0.000000    0.000000
  0.039438878   -3.205433   52.389580 -101.353376   13.870018    0.000000    0.000000    0.000000    0.000000
  0.039639279   -3.244774   50.304352 -100.752255   12.804721    0.000000    0.000000    0.000000    0.000000
  0.039839679   -3.287308   48.267284 -100.503054    9.453269    0.000000    0.000000    0.000000    0.000000
  0.040040080   -3.325882   46.244263  -99.903583   12.394763    0.000000    0.000000    0.000000    0.000000
  0.040240481   -3.375213   44.263748 -100.523593    5.269552    0.000000    0.000000    0.000000    0.000000
  0.040440882   -3.425935   42.255917 -101.458450    2.714615    0.000000    0.000000    0.000000    0.000000
  0.040641283   -3.482185   40.232662 -100.713403    7.596747    0.000000    0.000000    0.000000    0.000000
  0.040841683   -3.536983   38.184837 -100.910081   16.420851    0.000000    0.000000    0.000000    0.000000
  0.041042084   -3.594416   36.150265 -100.684809   10.610892    0.000000    0.000000    0.000000    0.000000
  0.041242485   -3.645652   34.105923 -100.316975    8.796479    0.000000    0.000000    0.000000    0.000000
  0.041442886   -3.699440   32.045959 -100.361731    2.678990    0.000000    0.000000    0.000000    0.000000
  0.041643287   -3.749901   29.987007 -101.193514    3.565624    0.000000    0.000000    0.000000    0.000000
  0.041843687   -3.801895   27.912054 -102.407416   -4.008568    0.000000    0.000000    0.000000    0.000000
  0.042044088   -3.845929   25.837479 -102.458397    4.333006    0.000000    0.000000    0.000000    0.000000
  0.042244489   -3.889773   23.804735 -102.883884   -3.757555    0.000000    0.000000    0.000000    0.000000
  0.042444890   -3.936025   21.794128 -102.192286   10.551643    0.000000    0.000000    0.000000    0.000000
  0.042645291   -3.980527   19.756105 -102.147953   12.501925    0.000000    0.000000    0.000000    0.000000
  0.042845691   -4.024295   17.745115 -101.053076    4.177472    0.000000    0.000000    0.000000    0.000000
  0.043046092   -4.064287   15.733897 -103.077554    3.277747    0.000000    0.000000    0.000000    0.000000
  0.043246493   -4.107920   13.738276 -101.968677    6.032075    0.000000    0.000000    0.000000    0.000000
  0.043446894   -4.149944   11.737056 -101.603285    4.030411    0.000000    0.000000    0.000000    0.000000
  0.043647295   -4.191491    9.769461 -101.675703    8.284319    0.000000    0.000000    0.000000    0.000000
  0.043847695   -4.234535    7.793862 -104.276910    7.831648    0.000000    0.000000    0.000000    0.000000
  0.044048096   -4.276902    5.840930 -100.944140   10.083770    0.000000    0.000000    0.000000    0.000000
  0.044248497   -4.315476    3.891456 -100.321054    7.974017    0.000000    0.000000    0.000000    0.000000
  0.044448898   -4.351256    1.949121 -103.419948   10.008516    0.000000    0.000000    0.000000    0.000000
  0.044649299   -4.383229    0.032535 -102.263225   12.530760    0.000000    0.000000    0.000000    0.000000
  0.044849699   -4.420816   -1.855678  -99.748745   11.195803    0.000000    0.000000    0.000000    0.000000
  0.045050100   -4.458898   -3.734040  -99.884439   18.885792    0.000000    0.000000    0.000000    0.000000
  0.045250501   -4.498984   -5.605515 -100.208825   18.019178    0.000000    0.000000    0.000000    0.000000
  0.045450902   -4.536795   -7.468681 -102.457744    5.406458    0.000000    0.000000    0.000000    0.000000
  0.045651303   -4.571430   -9.339125 -102.529494    8.555375    0.000000    0.000000    0.000000    0.000000
  0.045851703   -4.607883  -11.199612 -102.071361    1.658221    0.000000    0.000000    0.000000    0.000000
  0.046052104   -4.641618  -13.054708 -100.110437    3.237665    0.000000    0.000000    0.000000    0.000000
  0.046252505   -4.673813  -14.906524 -100.869287   -2.108673    0.000000    0.000000    0.000000    0.000000
  0.046452906   -4.705694  -16.755138 -100.960917   -3.806687    0.000000    0.000000    0.000000    0.000000
  0.046653307   -4.739483  -18.574841 -100.792565    6.509036    0.000000    0.000000    0.000000    0.000000
  0.046853707   -4.774147  -20.382399 -103.544237    3.834677    0.000000    0.000000    0.000000    0.000000
  0.047054108   -4.808553  -22.223072 -105.064604    4.828955    0.000000    0.000000    0.000000    0.000000
  0.047254509   -4.842801  -24.043379 -105.907452  -15.595665    0.000000    0.000000    0.000000    0.000000
  0.047454910   -4.870009  -25.871727 -104.543247   -2.823950    0.000000    0.000000    0.000000    0.000000
  0.047655311   -4.901179  -27.674076 -102.902867  -12.329575    0.000000    0.000000    0.000000    0.000000
  0.047855711   -4.930764  -29.482325 -105.644768   14.401546    0.000000    0.000000    0.000000    0.000000
  0.048056112   -4.958772  -31.292515 -103.896859   17.194185    0.000000    0.000000    0.000000    0.000000
  0.048256513   -4.985333  -33.077091 -100.959928   -5.919378    0.000000    0.000000    0.000000    0.000000
  0.048456914   -5.008255  -34.875427 -102.377771    7.828243    0.000000    0.000000    0.000000    0.000000
  0.048657315   -5.026629  -36.655071 -102.308810   11.513181    0.000000    0.000000    0.000000    0.000000
  0.048857715   -5.046856  -38.423286 -102.459182    1.450766    0.000000    0.000000    0.000000    0.000000
  0.049058116   -5.064619  -40.143280 -102.712869    6.772948    0.000000    0.000000    0.000000    0.000000
  0.049258517   -5.083875  -41.829987 -101.634007   12.950677    0.000000    0.000000    0.000000    0.000000
  0.049458918   -5.102473  -43.474518 -103.553918   -0.022332    0.000000    0.000000    0.000000    0.000000
  0.049659319   -5.118842  -45.122559 -103.667610   -3.489735    0.000000    0.000000    0.000000    0.000000
  0.049859719   -5.142791  -46.787853 -101.696222    3.961480    0.000000    0.000000    0.000000    0.000000
  0.050060120   -5.161763  -48.435707 -102.683498   -2.564143    0.000000    0.000000    0.000000    0.000000
  0.050260521   -5.184957  -50.084370 -104.556855    4.172993    0.000000    0.000000    0.000000    0.000000
  0.050460922   -5.206490  -51.735435 -101.607766   -4.257670    0.000000    0.000000    0.000000    0.000000
  0.050661323   -5.225638  -53.375153 -101.124580   -2.300695    0.000000    0.000000    0.000000    0.000000
  0.050861723   -5.243180  -55.046753 -103.436347  -15.115319    0.000000    0.000000    0.000000    0.000000
  0.051062124   -5.257203  -56.677769 -104.400576   -1.845849    0.000000    0.000000    0.000000    0.000000
  0.051262525   -5.268627  -58.278828 -102.826438   -4.514949    0.000000    0.000000    0.000000    0.000000
  0.051462926   -5.282644  -59.893524 -104.999342   -6.631722    0.000000    0.000000    0.000000    0.000000
  0.051663327   -5.296801  -61.458145 -108.540666  -19.208908    0.000000    0.000000    0.000000    0.000000
  0.051863727   -5.313799  -63.003914 -105.032632   -1.430486    0.000000    0.000000    0.000000    0.000000
  0.052064128   -5.332231  -64.565079 -107.390011   11.688800    0.000000    0.000000    0.000000    0.000000
  0.052264529   -5.348800  -66.112785 -102.563953    5.780441    0.000000    0.000000    0.000000    0.000000
  0.052464930   -5.363749  -67.691307 -104.127083   14.406027    0.000000    0.000000    0.000000    0.000000
  0.052665331   -5.378812  -69.260841 -106.156834    2.928660    0.000000    0.000000    0.000000    0.000000
  0.052865731   -5.394269  -70.807167 -105.747954   19.066511    0.000000    0.000000    0.000000    0.000000
