! Anritsu VNA Master:                     Model: MS2036C/10/77
! SN:                                  1601066
! /card0/usr/18may12.lna.rl/255b.lna.rl.s2p
! Existing Calibration Information:
! TYPE:                         Current Settings,       Active Cal Settings
! TIME:             	   05/13/2018 11:55:32 AM,    05/13/2018 11:48:03 AM
! INTERNAL TEMP:    	                   48.3 C,                    48.0 C
! # POINTS:         	                      500,                       500
! START FREQ:       	               20.000 MHz,                20.000 MHz
! STOP FREQ:        	              120.000 MHz,               120.000 MHz
! SOURCE POWER:     	                      Low,                       Low
! IFBW:             	                    10 Hz,                     10 Hz
! AVG FACTOR:       	                       1 ,                        1 
! REF PLANE 1:      	                     0 mm,                      0 mm
! REF PLANE 2:      	                     0 mm,                      0 mm
! CAL TYPE:         	                 Full S22,                  Full S22
! CAL METHOD:       	                     SOLT,                      SOLT
! CAL LINE TYPE:    	                     Coax,                      Coax
! DUT PORT 1:       	                K-Conn(M),                 K-Conn(M)
! DUT PORT 2:       	                K-Conn(M),                 K-Conn(M)
! CAL STATUS:       	        OK: Accuracy High,                        --
# GHZ S DB R 50.0
! FREQ.GHZ       S11DB        S11A       S21DB        S21A       S12DB        S12A       S22DB        S22A
  0.020000000    0.000000    0.000000    0.000000    0.000000  -82.151509   59.049828  -21.600496   44.140205
  0.020200401    0.000000    0.000000    0.000000    0.000000  -81.127540   70.567337  -21.667285   41.924854
  0.020400802    0.000000    0.000000    0.000000    0.000000  -83.824052   52.565754  -21.832790   38.078621
  0.020601202    0.000000    0.000000    0.000000    0.000000  -85.058601   56.243389  -21.805350   35.665520
  0.020801603    0.000000    0.000000    0.000000    0.000000  -84.695475   59.157970  -21.817963   32.426052
  0.021002004    0.000000    0.000000    0.000000    0.000000  -81.045216   64.073830  -21.822296   29.212257
  0.021202405    0.000000    0.000000    0.000000    0.000000  -83.909390   53.844948  -21.896541   26.483162
  0.021402806    0.000000    0.000000    0.000000    0.000000  -82.425465   68.753860  -21.979659   22.943455
  0.021603206    0.000000    0.000000    0.000000    0.000000  -82.014676   74.218681  -22.094976   20.743067
  0.021803607    0.000000    0.000000    0.000000    0.000000  -86.240656   76.748825  -22.040559   16.802607
  0.022004008    0.000000    0.000000    0.000000    0.000000  -82.141875   59.741829  -21.944045   14.073407
  0.022204409    0.000000    0.000000    0.000000    0.000000  -83.368279   61.705048  -22.101101   10.408302
  0.022404810    0.000000    0.000000    0.000000    0.000000  -81.270338   68.464195  -22.099416    6.562534
  0.022605210    0.000000    0.000000    0.000000    0.000000  -83.598742   52.687523  -22.138553    2.757177
  0.022805611    0.000000    0.000000    0.000000    0.000000  -83.688884   63.070362  -22.207705   -1.274154
  0.023006012    0.000000    0.000000    0.000000    0.000000  -83.247846   59.641384  -22.082557   -4.207108
  0.023206413    0.000000    0.000000    0.000000    0.000000  -85.293637   58.316826  -22.188705   -8.223062
  0.023406814    0.000000    0.000000    0.000000    0.000000  -84.107401   61.078400  -22.225560  -13.737208
  0.023607214    0.000000    0.000000    0.000000    0.000000  -83.419845   75.803215  -22.222391  -17.824627
  0.023807615    0.000000    0.000000    0.000000    0.000000  -83.477445   57.038193  -22.128556  -21.977741
  0.024008016    0.000000    0.000000    0.000000    0.000000  -82.440234   66.801117  -22.115240  -27.653557
  0.024208417    0.000000    0.000000    0.000000    0.000000  -82.453853   73.303246  -22.054057  -31.693144
  0.024408818    0.000000    0.000000    0.000000    0.000000  -84.137722   54.651260  -21.990401  -37.553322
  0.024609218    0.000000    0.000000    0.000000    0.000000  -82.372492   69.577881  -21.971040  -43.197922
  0.024809619    0.000000    0.000000    0.000000    0.000000  -85.875684   47.659096  -21.923443  -47.660599
  0.025010020    0.000000    0.000000    0.000000    0.000000  -84.850751   64.569000  -21.856602  -54.260780
  0.025210421    0.000000    0.000000    0.000000    0.000000  -83.743692   60.368034  -21.778818  -59.718708
  0.025410822    0.000000    0.000000    0.000000    0.000000  -84.674115   53.323959  -21.628635  -66.707497
  0.025611222    0.000000    0.000000    0.000000    0.000000  -85.436526   41.451988  -21.626130  -72.278397
  0.025811623    0.000000    0.000000    0.000000    0.000000  -83.476861   69.915894  -21.441975  -79.033966
  0.026012024    0.000000    0.000000    0.000000    0.000000  -84.571016   57.617207  -21.346989  -86.714531
  0.026212425    0.000000    0.000000    0.000000    0.000000  -85.719691   62.003548  -21.284421  -94.191925
  0.026412826    0.000000    0.000000    0.000000    0.000000  -83.878081   63.719349  -21.313399 -101.715485
  0.026613226    0.000000    0.000000    0.000000    0.000000  -87.608027   55.950546  -21.313639 -110.325249
  0.026813627    0.000000    0.000000    0.000000    0.000000  -86.673425   81.154732  -21.433929 -119.375107
  0.027014028    0.000000    0.000000    0.000000    0.000000  -84.757894   67.185760  -21.498803 -127.449936
  0.027214429    0.000000    0.000000    0.000000    0.000000  -85.517759   54.657196  -21.673340 -135.692734
  0.027414830    0.000000    0.000000    0.000000    0.000000  -84.329793   57.013474  -21.934453 -144.889389
  0.027615230    0.000000    0.000000    0.000000    0.000000  -85.530093   82.910950  -22.317752 -153.368332
  0.027815631    0.000000    0.000000    0.000000    0.000000  -84.108133   73.595917  -22.622217 -161.975983
  0.028016032    0.000000    0.000000    0.000000    0.000000  -85.905781   76.346069  -23.149906 -170.186569
  0.028216433    0.000000    0.000000    0.000000    0.000000  -83.543065   58.329342  -23.588617 -178.327560
  0.028416834    0.000000    0.000000    0.000000    0.000000  -84.942296   56.974232  -24.488625  175.060913
  0.028617234    0.000000    0.000000    0.000000    0.000000  -83.036897   62.775032  -24.992730  168.535492
  0.028817635    0.000000    0.000000    0.000000    0.000000  -85.160808   69.657227  -25.719001  161.513519
  0.029018036    0.000000    0.000000    0.000000    0.000000  -86.690056   63.063473  -26.429100  157.855255
  0.029218437    0.000000    0.000000    0.000000    0.000000  -86.506227   49.349060  -27.453127  152.174454
  0.029418838    0.000000    0.000000    0.000000    0.000000  -87.544061   63.034866  -28.014721  147.246078
  0.029619238    0.000000    0.000000    0.000000    0.000000  -82.838947   67.199585  -28.879578  144.683411
  0.029819639    0.000000    0.000000    0.000000    0.000000  -87.373220   76.604843  -29.311311  143.011612
  0.030020040    0.000000    0.000000    0.000000    0.000000  -85.375750   50.789673  -30.397942  139.571213
  0.030220441    0.000000    0.000000    0.000000    0.000000  -89.327812   74.682678  -30.882287  137.340179
  0.030420842    0.000000    0.000000    0.000000    0.000000  -84.105577   56.779678  -31.531213  137.456650
  0.030621242    0.000000    0.000000    0.000000    0.000000  -84.013723   66.493309  -32.474023  137.792252
  0.030821643    0.000000    0.000000    0.000000    0.000000  -86.793725   75.288551  -33.126046  136.671326
  0.031022044    0.000000    0.000000    0.000000    0.000000  -85.002501   63.078342  -33.196015  136.877640
  0.031222445    0.000000    0.000000    0.000000    0.000000  -84.340387   43.414242  -33.937364  141.397537
  0.031422846    0.000000    0.000000    0.000000    0.000000  -85.796338   54.654812  -33.797264  141.318115
  0.031623246    0.000000    0.000000    0.000000    0.000000  -81.147734   62.195969  -34.426269  141.057571
  0.031823647    0.000000    0.000000    0.000000    0.000000  -82.011889   76.534584  -34.748869  149.826340
  0.032024048    0.000000    0.000000    0.000000    0.000000  -83.685485   72.679588  -35.028674  147.432510
  0.032224449    0.000000    0.000000    0.000000    0.000000  -84.360815   50.947670  -34.760095  144.023575
  0.032424850    0.000000    0.000000    0.000000    0.000000  -86.038092   45.703709  -34.544076  146.915604
  0.032625251    0.000000    0.000000    0.000000    0.000000  -83.738990   46.439323  -34.360051  145.695526
  0.032825651    0.000000    0.000000    0.000000    0.000000  -85.877749   50.885609  -33.983088  148.950134
  0.033026052    0.000000    0.000000    0.000000    0.000000  -86.198891   32.104698  -33.480518  150.138504
  0.033226453    0.000000    0.000000    0.000000    0.000000  -84.075949   64.595299  -33.592497  151.731949
  0.033426854    0.000000    0.000000    0.000000    0.000000  -85.988519   86.222809  -33.875596  148.271988
  0.033627255    0.000000    0.000000    0.000000    0.000000  -86.603890   89.487679  -32.836792  152.362411
  0.033827655    0.000000    0.000000    0.000000    0.000000  -86.129232   56.244637  -33.147331  148.148087
  0.034028056    0.000000    0.000000    0.000000    0.000000  -82.530810   58.281151  -32.992420  145.658798
  0.034228457    0.000000    0.000000    0.000000    0.000000  -84.793959   45.818981  -32.650075  149.565216
  0.034428858    0.000000    0.000000    0.000000    0.000000  -89.064645   68.430092  -32.897948  147.901291
  0.034629259    0.000000    0.000000    0.000000    0.000000  -83.646504   66.396729  -32.536461  147.601807
  0.034829659    0.000000    0.000000    0.000000    0.000000  -85.479522   47.168919  -32.646147  148.456650
  0.035030060    0.000000    0.000000    0.000000    0.000000  -87.167997   73.240929  -32.421629  142.221649
  0.035230461    0.000000    0.000000    0.000000    0.000000  -88.881946   55.098053  -32.172891  142.333313
  0.035430862    0.000000    0.000000    0.000000    0.000000  -86.197915   81.012024  -32.439663  143.445053
  0.035631263    0.000000    0.000000    0.000000    0.000000  -86.382832   71.257446  -32.217648  141.978699
  0.035831663    0.000000    0.000000    0.000000    0.000000  -85.806797   78.119019  -32.412851  140.580856
  0.036032064    0.000000    0.000000    0.000000    0.000000  -85.865898   61.751366  -31.918504  142.285629
  0.036232465    0.000000    0.000000    0.000000    0.000000  -84.576763   60.300919  -31.899131  138.835022
  0.036432866    0.000000    0.000000    0.000000    0.000000  -84.093717   83.097374  -32.148657  139.292084
  0.036633267    0.000000    0.000000    0.000000    0.000000  -83.433049   48.698448  -31.440576  138.638153
  0.036833667    0.000000    0.000000    0.000000    0.000000  -84.210207   71.090988  -31.594009  136.250900
  0.037034068    0.000000    0.000000    0.000000    0.000000  -87.543396   72.216232  -31.644430  136.654022
  0.037234469    0.000000    0.000000    0.000000    0.000000  -85.523673   57.603317  -31.726698  136.375198
  0.037434870    0.000000    0.000000    0.000000    0.000000  -84.319515   63.358181  -31.661610  136.122879
  0.037635271    0.000000    0.000000    0.000000    0.000000  -86.087445   63.369156  -31.423453  135.267151
  0.037835671    0.000000    0.000000    0.000000    0.000000  -88.136226   44.866852  -31.509034  136.067184
  0.038036072    0.000000    0.000000    0.000000    0.000000  -86.991519   72.334198  -31.730340  136.296951
  0.038236473    0.000000    0.000000    0.000000    0.000000  -84.152608   65.379868  -31.034607  134.170258
  0.038436874    0.000000    0.000000    0.000000    0.000000  -83.703705   54.591694  -31.676531  132.766891
  0.038637275    0.000000    0.000000    0.000000    0.000000  -86.092965   48.048107  -31.286488  132.737717
  0.038837675    0.000000    0.000000    0.000000    0.000000  -89.660568   87.681747  -31.136275  130.635391
  0.039038076    0.000000    0.000000    0.000000    0.000000  -84.351148   59.678162  -31.241375  131.486206
  0.039238477    0.000000    0.000000    0.000000    0.000000  -83.200561   64.947670  -31.190609  130.190170
  0.039438878    0.000000    0.000000    0.000000    0.000000  -86.167894   30.861698  -31.261246  131.259506
  0.039639279    0.000000    0.000000    0.000000    0.000000  -85.273267   80.614349  -31.204384  129.474091
  0.039839679    0.000000    0.000000    0.000000    0.000000  -85.356893   77.069054  -31.381190  129.209137
  0.040040080    0.000000    0.000000    0.000000    0.000000  -84.890157   76.591820  -31.278312  130.576691
  0.040240481    0.000000    0.000000    0.000000    0.000000  -87.642440   58.522186  -31.245616  129.186905
  0.040440882    0.000000    0.000000    0.000000    0.000000  -85.333052   41.663845  -31.350807  127.705223
  0.040641283    0.000000    0.000000    0.000000    0.000000  -82.945738   72.427917  -31.158811  129.983261
  0.040841683    0.000000    0.000000    0.000000    0.000000  -86.875532   72.617561  -31.325960  129.414093
  0.041042084    0.000000    0.000000    0.000000    0.000000  -85.452270   78.510574  -30.966478  129.310913
  0.041242485    0.000000    0.000000    0.000000    0.000000  -82.152043   71.369720  -30.913359  128.060440
  0.041442886    0.000000    0.000000    0.000000    0.000000  -84.754203   85.096695  -30.945537  128.891113
  0.041643287    0.000000    0.000000    0.000000    0.000000  -86.095712   69.914078  -30.818452  127.295479
  0.041843687    0.000000    0.000000    0.000000    0.000000  -84.574955   92.143051  -30.734966  126.941322
  0.042044088    0.000000    0.000000    0.000000    0.000000  -86.494127   78.750847  -30.886301  126.581474
  0.042244489    0.000000    0.000000    0.000000    0.000000  -86.829477   68.683983  -30.911024  125.489754
  0.042444890    0.000000    0.000000    0.000000    0.000000  -84.828572   85.379234  -30.299748  125.620964
  0.042645291    0.000000    0.000000    0.000000    0.000000  -84.248296   82.165054  -30.398179  122.972664
  0.042845691    0.000000    0.000000    0.000000    0.000000  -85.490305   66.853256  -30.454306  124.985382
  0.043046092    0.000000    0.000000    0.000000    0.000000  -83.358622   65.613113  -30.106381  125.157135
  0.043246493    0.000000    0.000000    0.000000    0.000000  -86.491922   62.132107  -30.443436  123.382805
  0.043446894    0.000000    0.000000    0.000000    0.000000  -84.993785   59.439369  -30.326927  123.668358
  0.043647295    0.000000    0.000000    0.000000    0.000000  -89.756058   22.800465  -30.127663  124.386284
  0.043847695    0.000000    0.000000    0.000000    0.000000  -85.407646   75.863754  -29.821674  123.509544
  0.044048096    0.000000    0.000000    0.000000    0.000000  -90.264339   67.851082  -29.844661  121.923210
  0.044248497    0.000000    0.000000    0.000000    0.000000  -86.361319   78.118401  -29.964024  121.668320
  0.044448898    0.000000    0.000000    0.000000    0.000000  -84.015551   85.496323  -30.006996  122.230728
  0.044649299    0.000000    0.000000    0.000000    0.000000  -85.131290   71.494949  -29.642941  121.987617
  0.044849699    0.000000    0.000000    0.000000    0.000000  -84.738831   70.452934  -29.437999  121.622635
  0.045050100    0.000000    0.000000    0.000000    0.000000  -87.676129   60.428123  -29.674639  120.262955
  0.045250501    0.000000    0.000000    0.000000    0.000000  -85.506137   63.280773  -29.461056  120.925087
  0.045450902    0.000000    0.000000    0.000000    0.000000  -83.698919   82.937775  -29.393025  119.684029
  0.045651303    0.000000    0.000000    0.000000    0.000000  -83.448557   65.145309  -29.082978  119.332626
  0.045851703    0.000000    0.000000    0.000000    0.000000  -87.638131   71.210098  -29.059372  118.338058
  0.046052104    0.000000    0.000000    0.000000    0.000000  -85.769685   62.446014  -29.218626  117.717094
  0.046252505    0.000000    0.000000    0.000000    0.000000  -83.374785   69.053650  -29.068266  116.075844
  0.046452906    0.000000    0.000000    0.000000    0.000000  -82.863559   70.314758  -28.782624  116.311852
  0.046653307    0.000000    0.000000    0.000000    0.000000  -83.715314   73.751183  -28.684219  116.452240
  0.046853707    0.000000    0.000000    0.000000    0.000000  -85.898248   77.603333  -28.649705  114.201904
  0.047054108    0.000000    0.000000    0.000000    0.000000  -84.222595   81.730675  -28.629894  115.750481
  0.047254509    0.000000    0.000000    0.000000    0.000000  -84.298551   85.081863  -28.212244  114.355331
  0.047454910    0.000000    0.000000    0.000000    0.000000  -83.717727   49.205441  -28.484278  112.945389
  0.047655311    0.000000    0.000000    0.000000    0.000000  -86.872424   50.228966  -28.249465  111.161186
  0.047855711    0.000000    0.000000    0.000000    0.000000  -85.573259   64.797127  -28.397359  112.942726
  0.048056112    0.000000    0.000000    0.000000    0.000000  -86.131620   57.416271  -28.116228  112.299492
  0.048256513    0.000000    0.000000    0.000000    0.000000  -86.802766   66.561440  -28.076647  111.268921
  0.048456914    0.000000    0.000000    0.000000    0.000000  -86.662788   69.868195  -28.113181  109.453682
  0.048657315    0.000000    0.000000    0.000000    0.000000  -82.389689   54.970619  -28.305414  108.113312
  0.048857715    0.000000    0.000000    0.000000    0.000000  -88.711525   75.312180  -27.949873  107.958191
  0.049058116    0.000000    0.000000    0.000000    0.000000  -85.426615   59.870705  -27.920825  107.919281
  0.049258517    0.000000    0.000000    0.000000    0.000000  -86.801437   66.805923  -27.839964  105.221024
  0.049458918    0.000000    0.000000    0.000000    0.000000  -87.691669   48.384007  -27.897286  106.284645
  0.049659319    0.000000    0.000000    0.000000    0.000000  -85.452572   50.344437  -27.568537  104.489456
  0.049859719    0.000000    0.000000    0.000000    0.000000  -85.906914   61.491318  -27.699328  103.371498
  0.050060120    0.000000    0.000000    0.000000    0.000000  -85.062973   72.228592  -27.611971  104.512230
  0.050260521    0.000000    0.000000    0.000000    0.000000  -87.233009   69.838524  -27.389930  103.441391
  0.050460922    0.000000    0.000000    0.000000    0.000000  -84.598778   61.156967  -27.637499  101.651878
  0.050661323    0.000000    0.000000    0.000000    0.000000  -82.976777   70.196228  -27.533860  101.867149
  0.050861723    0.000000    0.000000    0.000000    0.000000  -86.568394   43.194149  -27.515568  100.847359
  0.051062124    0.000000    0.000000    0.000000    0.000000  -87.732477   83.892204  -27.534380  100.571785
  0.051262525    0.000000    0.000000    0.000000    0.000000  -90.851713   55.505745  -27.700520  100.951004
  0.051462926    0.000000    0.000000    0.000000    0.000000  -89.041357   70.525742  -27.293993   99.108131
  0.051663327    0.000000    0.000000    0.000000    0.000000  -87.166072   44.192043  -27.238570   97.652908
  0.051863727    0.000000    0.000000    0.000000    0.000000  -86.873277   60.522820  -27.379338   96.748390
  0.052064128    0.000000    0.000000    0.000000    0.000000  -86.875245   70.388245  -27.171536   95.313179
  0.052264529    0.000000    0.000000    0.000000    0.000000  -89.606222   60.828526  -27.330710   94.700264
  0.052464930    0.000000    0.000000    0.000000    0.000000  -85.194291   56.241009  -27.181043   94.989296
  0.052665331    0.000000    0.000000    0.000000    0.000000  -89.520957   60.359112  -27.135417   94.363281
  0.052865731    0.000000    0.000000    0.000000    0.000000  -86.846056   90.562752  -27.410659   94.369484
