! Anritsu VNA Master:                     Model: MS2036C/10/77
! SN:                                  1601066
! /card0/usr/18may27.balun/5b.m.s2p
! Existing Calibration Information:
! TYPE:                         Current Settings,       Active Cal Settings
! TIME:             	   05/27/2018 03:25:44 PM,    05/27/2018 03:21:57 PM
! INTERNAL TEMP:    	                   52.5 C,                    52.3 C
! # POINTS:         	                      500,                       500
! START FREQ:       	               20.000 MHz,                20.000 MHz
! STOP FREQ:        	              120.000 MHz,               120.000 MHz
! SOURCE POWER:     	                     High,                      High
! IFBW:             	                    50 Hz,                     50 Hz
! AVG FACTOR:       	                       1 ,                        1 
! REF PLANE 1:      	                     0 mm,                      0 mm
! REF PLANE 2:      	                     0 mm,                      0 mm
! CAL TYPE:         	                 Full S11,                  Full S11
! CAL METHOD:       	                     SOLT,                      SOLT
! CAL LINE TYPE:    	                     Coax,                      Coax
! DUT PORT 1:       	                K-Conn(M),                 K-Conn(M)
! DUT PORT 2:       	                K-Conn(M),                 K-Conn(M)
! CAL STATUS:       	        OK: Accuracy High,                        --
# GHZ S DB R 50.0
! FREQ.GHZ       S11DB        S11A       S21DB        S21A       S12DB        S12A       S22DB        S22A
  0.020000000   -0.719614 -125.501556  -90.618668   29.881302    0.000000    0.000000    0.000000    0.000000
  0.020200401   -0.719741 -126.983719  -91.032950   32.974712    0.000000    0.000000    0.000000    0.000000
  0.020400802   -0.716536 -128.441345  -91.437507   28.808300    0.000000    0.000000    0.000000    0.000000
  0.020601202   -0.717410 -129.904221  -91.153762   27.228109    0.000000    0.000000    0.000000    0.000000
  0.020801603   -0.722355 -131.394760  -92.188807   27.251143    0.000000    0.000000    0.000000    0.000000
  0.021002004   -0.728668 -132.901764  -92.928926   31.662714    0.000000    0.000000    0.000000    0.000000
  0.021202405   -0.737049 -134.445847  -92.507882   31.657673    0.000000    0.000000    0.000000    0.000000
  0.021402806   -0.743064 -135.981293  -93.613491   33.747051    0.000000    0.000000    0.000000    0.000000
  0.021603206   -0.748302 -137.516922  -92.815886   30.777861    0.000000    0.000000    0.000000    0.000000
  0.021803607   -0.753387 -139.046967  -93.902239   36.004913    0.000000    0.000000    0.000000    0.000000
  0.022004008   -0.759365 -140.602554  -93.174803   35.390358    0.000000    0.000000    0.000000    0.000000
  0.022204409   -0.762099 -142.178238  -93.092163   36.624065    0.000000    0.000000    0.000000    0.000000
  0.022404810   -0.766072 -143.755524  -93.080405   34.898335    0.000000    0.000000    0.000000    0.000000
  0.022605210   -0.770030 -145.324112  -92.701930   33.772030    0.000000    0.000000    0.000000    0.000000
  0.022805611   -0.771006 -146.868240  -92.250541   36.478527    0.000000    0.000000    0.000000    0.000000
  0.023006012   -0.772691 -148.419098  -92.371448   35.384113    0.000000    0.000000    0.000000    0.000000
  0.023206413   -0.782476 -149.977737  -92.247605   32.158779    0.000000    0.000000    0.000000    0.000000
  0.023406814   -0.790307 -151.556396  -91.483300   34.052853    0.000000    0.000000    0.000000    0.000000
  0.023607214   -0.801410 -153.143204  -92.649836   28.498045    0.000000    0.000000    0.000000    0.000000
  0.023807615   -0.809669 -154.737579  -92.411991   22.746546    0.000000    0.000000    0.000000    0.000000
  0.024008016   -0.819524 -156.334152  -92.958440   29.242899    0.000000    0.000000    0.000000    0.000000
  0.024208417   -0.830178 -157.923233  -92.919938   20.456913    0.000000    0.000000    0.000000    0.000000
  0.024408818   -0.844235 -159.553482  -92.860577   20.728130    0.000000    0.000000    0.000000    0.000000
  0.024609218   -0.858139 -161.211227  -93.819287   18.461302    0.000000    0.000000    0.000000    0.000000
  0.024809619   -0.867356 -162.887711  -93.639605   19.567360    0.000000    0.000000    0.000000    0.000000
  0.025010020   -0.875289 -164.575928  -94.585690   20.804064    0.000000    0.000000    0.000000    0.000000
  0.025210421   -0.886193 -166.249451  -94.502197   15.269769    0.000000    0.000000    0.000000    0.000000
  0.025410822   -0.896960 -167.941071  -94.675357   18.217909    0.000000    0.000000    0.000000    0.000000
  0.025611222   -0.908865 -169.649780  -94.608021   23.590937    0.000000    0.000000    0.000000    0.000000
  0.025811623   -0.921070 -171.366257  -94.955552   23.292982    0.000000    0.000000    0.000000    0.000000
  0.026012024   -0.933233 -173.113052  -95.253135   22.038414    0.000000    0.000000    0.000000    0.000000
  0.026212425   -0.951062 -174.857605  -95.268163   20.460680    0.000000    0.000000    0.000000    0.000000
  0.026412826   -0.969334 -176.620819  -95.647013   22.848648    0.000000    0.000000    0.000000    0.000000
  0.026613226   -0.987560 -178.401581  -95.696731   19.224127    0.000000    0.000000    0.000000    0.000000
  0.026813627   -1.004678  179.826416  -95.460775   23.757902    0.000000    0.000000    0.000000    0.000000
  0.027014028   -1.020875  178.062027  -95.973903   20.199675    0.000000    0.000000    0.000000    0.000000
  0.027214429   -1.036491  176.291428  -95.764886   22.814827    0.000000    0.000000    0.000000    0.000000
  0.027414830   -1.052074  174.524307  -95.606872   22.387396    0.000000    0.000000    0.000000    0.000000
  0.027615230   -1.070619  172.751389  -94.971148   26.383783    0.000000    0.000000    0.000000    0.000000
  0.027815631   -1.092725  170.956970  -95.750303   21.108335    0.000000    0.000000    0.000000    0.000000
  0.028016032   -1.114055  169.140778  -96.112905   15.299675    0.000000    0.000000    0.000000    0.000000
  0.028216433   -1.134763  167.330154  -95.283706   18.268021    0.000000    0.000000    0.000000    0.000000
  0.028416834   -1.157758  165.518799  -95.841343   18.231628    0.000000    0.000000    0.000000    0.000000
  0.028617234   -1.181899  163.704819  -95.341268   16.374126    0.000000    0.000000    0.000000    0.000000
  0.028817635   -1.207500  161.872452  -96.688287   13.021601    0.000000    0.000000    0.000000    0.000000
  0.029018036   -1.234997  160.013519  -96.209926    9.549438    0.000000    0.000000    0.000000    0.000000
  0.029218437   -1.259263  158.132385  -96.508411   11.563113    0.000000    0.000000    0.000000    0.000000
  0.029418838   -1.282330  156.267593  -98.479588    6.584727    0.000000    0.000000    0.000000    0.000000
  0.029619238   -1.305544  154.419769  -96.855094   10.182090    0.000000    0.000000    0.000000    0.000000
  0.029819639   -1.331819  152.565720  -96.570837   12.500739    0.000000    0.000000    0.000000    0.000000
  0.030020040   -1.358135  150.709106  -97.141336   11.042141    0.000000    0.000000    0.000000    0.000000
  0.030220441   -1.390372  148.836441  -97.340545   15.682072    0.000000    0.000000    0.000000    0.000000
  0.030420842   -1.427583  146.944839  -97.800265   17.116997    0.000000    0.000000    0.000000    0.000000
  0.030621242   -1.469182  144.993103  -97.691819   14.208849    0.000000    0.000000    0.000000    0.000000
  0.030821643   -1.505626  143.014282  -98.526578   12.983425    0.000000    0.000000    0.000000    0.000000
  0.031022044   -1.540975  140.994736  -98.235997   18.314556    0.000000    0.000000    0.000000    0.000000
  0.031222445   -1.569500  138.978210  -96.654641   16.616915    0.000000    0.000000    0.000000    0.000000
  0.031422846   -1.597254  136.955902  -96.765684   16.395756    0.000000    0.000000    0.000000    0.000000
  0.031623246   -1.624418  134.952377  -97.555504   15.510764    0.000000    0.000000    0.000000    0.000000
  0.031823647   -1.649234  132.963242  -97.294893   19.093536    0.000000    0.000000    0.000000    0.000000
  0.032024048   -1.674241  131.006821  -97.186630    8.855714    0.000000    0.000000    0.000000    0.000000
  0.032224449   -1.702551  129.059662  -97.653581   17.659569    0.000000    0.000000    0.000000    0.000000
  0.032424850   -1.731351  127.126282  -96.919024   11.277186    0.000000    0.000000    0.000000    0.000000
  0.032625251   -1.769845  125.171013  -97.652762   10.782428    0.000000    0.000000    0.000000    0.000000
  0.032825651   -1.811622  123.222954  -96.889311    6.127467    0.000000    0.000000    0.000000    0.000000
  0.033026052   -1.857509  121.263779  -98.803864    9.042518    0.000000    0.000000    0.000000    0.000000
  0.033226453   -1.903468  119.286697  -97.892627   12.595576    0.000000    0.000000    0.000000    0.000000
  0.033426854   -1.949817  117.294006  -98.339332    9.762296    0.000000    0.000000    0.000000    0.000000
  0.033627255   -1.995861  115.257881  -99.290746    1.283995    0.000000    0.000000    0.000000    0.000000
  0.033827655   -2.041597  113.201485  -98.649091   10.357262    0.000000    0.000000    0.000000    0.000000
  0.034028056   -2.088499  111.128525  -98.410927    0.125482    0.000000    0.000000    0.000000    0.000000
  0.034228457   -2.134235  109.055786  -99.868150   12.311390    0.000000    0.000000    0.000000    0.000000
  0.034428858   -2.179554  106.985947  -98.341183   10.394111    0.000000    0.000000    0.000000    0.000000
  0.034629259   -2.221266  104.918488  -99.035832    8.557286    0.000000    0.000000    0.000000    0.000000
  0.034829659   -2.259464  102.863716  -98.562815   13.724172    0.000000    0.000000    0.000000    0.000000
  0.035030060   -2.299700  100.836784  -98.537226   19.694904    0.000000    0.000000    0.000000    0.000000
  0.035230461   -2.346535   98.832581  -98.227598   14.992510    0.000000    0.000000    0.000000    0.000000
  0.035430862   -2.398877   96.821472  -98.193626   16.470798    0.000000    0.000000    0.000000    0.000000
  0.035631263   -2.459259   94.803093  -99.028246    9.206112    0.000000    0.000000    0.000000    0.000000
  0.035831663   -2.520850   92.733543  -98.157902    8.864392    0.000000    0.000000    0.000000    0.000000
  0.036032064   -2.581028   90.610687  -99.292012   16.981602    0.000000    0.000000    0.000000    0.000000
  0.036232465   -2.638415   88.441902  -98.581012   10.622627    0.000000    0.000000    0.000000    0.000000
  0.036432866   -2.695819   86.263657  -99.706825    7.803826    0.000000    0.000000    0.000000    0.000000
  0.036633267   -2.746879   84.104523  -98.799371    2.038716    0.000000    0.000000    0.000000    0.000000
  0.036833667   -2.793956   81.937111  -99.027664   10.284722    0.000000    0.000000    0.000000    0.000000
  0.037034068   -2.838202   79.828857  -99.062894   14.512798    0.000000    0.000000    0.000000    0.000000
  0.037234469   -2.877575   77.713287  -99.432507   12.828585    0.000000    0.000000    0.000000    0.000000
  0.037434870   -2.917152   75.661674  -99.172705    3.222418    0.000000    0.000000    0.000000    0.000000
  0.037635271   -2.954432   73.588737  -99.652600    4.843431    0.000000    0.000000    0.000000    0.000000
  0.037835671   -2.994438   71.510262  -99.726349    7.933256    0.000000    0.000000    0.000000    0.000000
  0.038036072   -3.044214   69.376717  -99.347112   -0.515615    0.000000    0.000000    0.000000    0.000000
  0.038236473   -3.107286   67.264450  -99.940529    3.075652    0.000000    0.000000    0.000000    0.000000
  0.038436874   -3.178079   65.151878 -101.536535   -0.057389    0.000000    0.000000    0.000000    0.000000
  0.038637275   -3.250444   63.103058 -101.360822    5.700264    0.000000    0.000000    0.000000    0.000000
  0.038837675   -3.322531   61.002590 -101.366593   12.643809    0.000000    0.000000    0.000000    0.000000
  0.039038076   -3.388830   58.843918 -100.249461   16.690531    0.000000    0.000000    0.000000    0.000000
  0.039238477   -3.448201   56.713650 -100.507731    5.994098    0.000000    0.000000    0.000000    0.000000
  0.039438878   -3.500776   54.580906 -100.206389   20.515722    0.000000    0.000000    0.000000    0.000000
  0.039639279   -3.547160   52.490540 -101.049015   12.155516    0.000000    0.000000    0.000000    0.000000
  0.039839679   -3.592942   50.441624 -101.564844   19.044554    0.000000    0.000000    0.000000    0.000000
  0.040040080   -3.638556   48.436085 -100.235021    7.222164    0.000000    0.000000    0.000000    0.000000
  0.040240481   -3.691382   46.435173 -101.252738   10.700473    0.000000    0.000000    0.000000    0.000000
  0.040440882   -3.751499   44.427536 -100.900379   -2.909034    0.000000    0.000000    0.000000    0.000000
  0.040641283   -3.811894   42.376976  -97.867418    3.196812    0.000000    0.000000    0.000000    0.000000
  0.040841683   -3.870481   40.337120 -100.592338    2.391944    0.000000    0.000000    0.000000    0.000000
  0.041042084   -3.929558   38.243496 -100.989747   -1.002399    0.000000    0.000000    0.000000    0.000000
  0.041242485   -3.986727   36.188663 -100.086037    0.572598    0.000000    0.000000    0.000000    0.000000
  0.041442886   -4.042115   34.118153  -99.030746    8.265561    0.000000    0.000000    0.000000    0.000000
  0.041643287   -4.096496   32.061905 -100.061521    7.278545    0.000000    0.000000    0.000000    0.000000
  0.041843687   -4.147583   29.966022  -99.567856    5.767821    0.000000    0.000000    0.000000    0.000000
  0.042044088   -4.194612   27.909437  -99.872732    0.030893    0.000000    0.000000    0.000000    0.000000
  0.042244489   -4.240279   25.871700 -101.220205   -3.013860    0.000000    0.000000    0.000000    0.000000
  0.042444890   -4.289557   23.877735 -102.059897    8.592076    0.000000    0.000000    0.000000    0.000000
  0.042645291   -4.334507   21.869652 -103.171368   -6.795462    0.000000    0.000000    0.000000    0.000000
  0.042845691   -4.381939   19.880741 -101.951410    6.694515    0.000000    0.000000    0.000000    0.000000
  0.043046092   -4.425226   17.887415 -102.631310    1.281965    0.000000    0.000000    0.000000    0.000000
  0.043246493   -4.472831   15.912825 -102.777394   -0.354011    0.000000    0.000000    0.000000    0.000000
  0.043446894   -4.517897   13.936025 -103.087496    8.838954    0.000000    0.000000    0.000000    0.000000
  0.043647295   -4.568636   11.984899  -99.956567   12.771583    0.000000    0.000000    0.000000    0.000000
  0.043847695   -4.615971   10.008138 -103.309796   10.161159    0.000000    0.000000    0.000000    0.000000
  0.044048096   -4.667032    8.046613 -100.780386   18.246206    0.000000    0.000000    0.000000    0.000000
  0.044248497   -4.709874    6.089517 -102.778981    2.813170    0.000000    0.000000    0.000000    0.000000
  0.044448898   -4.750160    4.129246 -101.581244    9.930943    0.000000    0.000000    0.000000    0.000000
  0.044649299   -4.789832    2.192889 -100.626856    7.131371    0.000000    0.000000    0.000000    0.000000
  0.044849699   -4.832583    0.269292 -101.099344    8.799264    0.000000    0.000000    0.000000    0.000000
  0.045050100   -4.872657   -1.659938 -102.008987    9.192041    0.000000    0.000000    0.000000    0.000000
  0.045250501   -4.916213   -3.563999 -101.895965   15.252170    0.000000    0.000000    0.000000    0.000000
  0.045450902   -4.953709   -5.480437  -99.832978    8.619976    0.000000    0.000000    0.000000    0.000000
  0.045651303   -4.991794   -7.415608 -101.183574    1.655541    0.000000    0.000000    0.000000    0.000000
  0.045851703   -5.028251   -9.306141 -102.094646    4.472777    0.000000    0.000000    0.000000    0.000000
  0.046052104   -5.065298  -11.225958 -101.737006    6.863820    0.000000    0.000000    0.000000    0.000000
  0.046252505   -5.100144  -13.123351 -101.169281    4.284256    0.000000    0.000000    0.000000    0.000000
  0.046452906   -5.132363  -15.001336 -102.348827    0.131054    0.000000    0.000000    0.000000    0.000000
  0.046653307   -5.167107  -16.846724 -101.696657    7.170583    0.000000    0.000000    0.000000    0.000000
  0.046853707   -5.203037  -18.704807 -101.892035    5.059103    0.000000    0.000000    0.000000    0.000000
  0.047054108   -5.237326  -20.550310 -101.257022   -7.292223    0.000000    0.000000    0.000000    0.000000
  0.047254509   -5.267270  -22.403053 -103.152660   -4.750821    0.000000    0.000000    0.000000    0.000000
  0.047454910   -5.299203  -24.236511 -103.777969    9.661015    0.000000    0.000000    0.000000    0.000000
  0.047655311   -5.329014  -26.045795 -105.778739   -1.521734    0.000000    0.000000    0.000000    0.000000
  0.047855711   -5.359803  -27.859531 -103.582088   -4.952040    0.000000    0.000000    0.000000    0.000000
  0.048056112   -5.387015  -29.653021 -105.266656   -6.833321    0.000000    0.000000    0.000000    0.000000
  0.048256513   -5.413078  -31.464394 -103.817952    2.054404    0.000000    0.000000    0.000000    0.000000
  0.048456914   -5.439442  -33.264755 -103.633444    8.282347    0.000000    0.000000    0.000000    0.000000
  0.048657315   -5.460895  -35.043316 -102.627771   14.769681    0.000000    0.000000    0.000000    0.000000
  0.048857715   -5.483151  -36.798424 -102.279668   15.626274    0.000000    0.000000    0.000000    0.000000
  0.049058116   -5.504280  -38.524765 -102.143542    5.513138    0.000000    0.000000    0.000000    0.000000
  0.049258517   -5.522893  -40.222313 -103.311187   23.480598    0.000000    0.000000    0.000000    0.000000
  0.049458918   -5.548079  -41.889965 -102.629096   12.340603    0.000000    0.000000    0.000000    0.000000
  0.049659319   -5.569825  -43.564556 -104.007385   10.542141    0.000000    0.000000    0.000000    0.000000
  0.049859719   -5.597077  -45.260380 -102.025769    1.921254    0.000000    0.000000    0.000000    0.000000
  0.050060120   -5.622611  -46.935204 -103.030321   -2.976480    0.000000    0.000000    0.000000    0.000000
  0.050260521   -5.651301  -48.648239 -103.906082   -0.693183    0.000000    0.000000    0.000000    0.000000
  0.050460922   -5.673438  -50.312408 -102.246334   10.865551    0.000000    0.000000    0.000000    0.000000
  0.050661323   -5.693567  -51.976727 -102.713953   -3.948033    0.000000    0.000000    0.000000    0.000000
  0.050861723   -5.711056  -53.664009 -101.725866    3.091014    0.000000    0.000000    0.000000    0.000000
  0.051062124   -5.727982  -55.349754 -103.556380    6.978176    0.000000    0.000000    0.000000    0.000000
  0.051262525   -5.738608  -56.979710 -103.195944   14.070374    0.000000    0.000000    0.000000    0.000000
  0.051462926   -5.755593  -58.592751 -104.485685    5.357702    0.000000    0.000000    0.000000    0.000000
  0.051663327   -5.769942  -60.195038 -103.103632    0.783479    0.000000    0.000000    0.000000    0.000000
  0.051863727   -5.791457  -61.748257 -105.201098   -6.220731    0.000000    0.000000    0.000000    0.000000
  0.052064128   -5.806731  -63.339897 -103.071129   -1.414799    0.000000    0.000000    0.000000    0.000000
  0.052264529   -5.826392  -64.917381 -108.043466   13.426770    0.000000    0.000000    0.000000    0.000000
  0.052464930   -5.841077  -66.482635 -102.575505    8.334199    0.000000    0.000000    0.000000    0.000000
  0.052665331   -5.857824  -68.080093 -104.645296    4.807540    0.000000    0.000000    0.000000    0.000000
  0.052865731   -5.874202  -69.624336 -103.027049   10.841878    0.000000    0.000000    0.000000    0.000000
