! Anritsu VNA Master:                     Model: MS2036C/10/77
! SN:                                  1601066
! /card0/usr/18may12.lna.rl/255a.lna.rl.s2p
! Existing Calibration Information:
! TYPE:                         Current Settings,       Active Cal Settings
! TIME:             	   05/12/2018 06:05:20 PM,    05/12/2018 05:58:24 PM
! INTERNAL TEMP:    	                   48.0 C,                    48.5 C
! # POINTS:         	                      500,                       500
! START FREQ:       	               20.000 MHz,                20.000 MHz
! STOP FREQ:        	              120.000 MHz,               120.000 MHz
! SOURCE POWER:     	                      Low,                       Low
! IFBW:             	                    10 Hz,                     10 Hz
! AVG FACTOR:       	                       1 ,                        1 
! REF PLANE 1:      	                     0 mm,                      0 mm
! REF PLANE 2:      	                     0 mm,                      0 mm
! CAL TYPE:         	                 Full S22,                  Full S22
! CAL METHOD:       	                     SOLT,                      SOLT
! CAL LINE TYPE:    	                     Coax,                      Coax
! DUT PORT 1:       	                K-Conn(M),                 K-Conn(M)
! DUT PORT 2:       	                K-Conn(M),                 K-Conn(M)
! CAL STATUS:       	        OK: Accuracy High,                        --
# GHZ S DB R 50.0
! FREQ.GHZ       S11DB        S11A       S21DB        S21A       S12DB        S12A       S22DB        S22A
  0.020000000    0.000000    0.000000    0.000000    0.000000  -82.593813   52.661297  -20.313395   25.929552
  0.020200401    0.000000    0.000000    0.000000    0.000000  -82.904036   57.140709  -20.366444   23.355768
  0.020400802    0.000000    0.000000    0.000000    0.000000  -81.335243   55.598003  -20.256431   21.272398
  0.020601202    0.000000    0.000000    0.000000    0.000000  -82.608732   70.644295  -20.291306   18.174456
  0.020801603    0.000000    0.000000    0.000000    0.000000  -81.571185   67.183655  -20.181784   15.882590
  0.021002004    0.000000    0.000000    0.000000    0.000000  -81.734448   56.233543  -20.197411   13.469169
  0.021202405    0.000000    0.000000    0.000000    0.000000  -83.994864   51.787312  -20.147436   11.002582
  0.021402806    0.000000    0.000000    0.000000    0.000000  -84.784329   72.521530  -20.094281    9.076500
  0.021603206    0.000000    0.000000    0.000000    0.000000  -87.523364   73.530342  -20.046271    6.469925
  0.021803607    0.000000    0.000000    0.000000    0.000000  -83.163533   73.337563  -19.893134    3.190724
  0.022004008    0.000000    0.000000    0.000000    0.000000  -86.389287   59.576973  -19.912578    0.317725
  0.022204409    0.000000    0.000000    0.000000    0.000000  -82.289746   64.022194  -19.811574   -2.598001
  0.022404810    0.000000    0.000000    0.000000    0.000000  -82.354657   61.511154  -19.796940   -4.953689
  0.022605210    0.000000    0.000000    0.000000    0.000000  -82.964312   65.484154  -19.768710   -7.706591
  0.022805611    0.000000    0.000000    0.000000    0.000000  -83.319412   73.604073  -19.752027  -10.828120
  0.023006012    0.000000    0.000000    0.000000    0.000000  -82.529730   67.437050  -19.631927  -13.140190
  0.023206413    0.000000    0.000000    0.000000    0.000000  -83.777776   56.776325  -19.634532  -16.810469
  0.023406814    0.000000    0.000000    0.000000    0.000000  -85.297886   70.241379  -19.620250  -20.385092
  0.023607214    0.000000    0.000000    0.000000    0.000000  -81.886526   74.956711  -19.456596  -22.904743
  0.023807615    0.000000    0.000000    0.000000    0.000000  -83.868914   40.539986  -19.519977  -26.490253
  0.024008016    0.000000    0.000000    0.000000    0.000000  -81.976668   66.917885  -19.529938  -30.099104
  0.024208417    0.000000    0.000000    0.000000    0.000000  -83.720839   68.650719  -19.450904  -33.325809
  0.024408818    0.000000    0.000000    0.000000    0.000000  -84.880472   57.678959  -19.468469  -37.043526
  0.024609218    0.000000    0.000000    0.000000    0.000000  -84.148575   67.600334  -19.424287  -41.503536
  0.024809619    0.000000    0.000000    0.000000    0.000000  -87.146215   56.853718  -19.289268  -45.152458
  0.025010020    0.000000    0.000000    0.000000    0.000000  -85.305232   59.376625  -19.364071  -49.443787
  0.025210421    0.000000    0.000000    0.000000    0.000000  -82.637172   56.170341  -19.469272  -53.941700
  0.025410822    0.000000    0.000000    0.000000    0.000000  -83.353408   66.891304  -19.390683  -58.472008
  0.025611222    0.000000    0.000000    0.000000    0.000000  -84.742911   69.981667  -19.524591  -63.412773
  0.025811623    0.000000    0.000000    0.000000    0.000000  -86.111718   53.337734  -19.391053  -68.207649
  0.026012024    0.000000    0.000000    0.000000    0.000000  -82.048076   59.611706  -19.511093  -73.725159
  0.026212425    0.000000    0.000000    0.000000    0.000000  -82.125490   45.647362  -19.654649  -78.765007
  0.026412826    0.000000    0.000000    0.000000    0.000000  -82.363465   66.388664  -19.679546  -85.177795
  0.026613226    0.000000    0.000000    0.000000    0.000000  -84.405257   69.154671  -19.874324  -91.492355
  0.026813627    0.000000    0.000000    0.000000    0.000000  -87.226671   72.428253  -20.121710  -97.621101
  0.027014028    0.000000    0.000000    0.000000    0.000000  -83.032288   82.759697  -20.333767 -104.509506
  0.027214429    0.000000    0.000000    0.000000    0.000000  -90.219601   63.662983  -20.686495 -111.414604
  0.027414830    0.000000    0.000000    0.000000    0.000000  -84.374219   54.396900  -21.149873 -118.668236
  0.027615230    0.000000    0.000000    0.000000    0.000000  -83.483941   48.523720  -21.663674 -126.357147
  0.027815631    0.000000    0.000000    0.000000    0.000000  -86.499874   53.173817  -22.235760 -134.426025
  0.028016032    0.000000    0.000000    0.000000    0.000000  -83.842390   55.944752  -22.864446 -141.489441
  0.028216433    0.000000    0.000000    0.000000    0.000000  -86.516321   45.949799  -23.625999 -149.935837
  0.028416834    0.000000    0.000000    0.000000    0.000000  -85.398574   42.922466  -24.513445 -156.643661
  0.028617234    0.000000    0.000000    0.000000    0.000000  -85.010739   65.839340  -25.523552 -164.785568
  0.028817635    0.000000    0.000000    0.000000    0.000000  -84.120652   48.743298  -26.528086 -171.398346
  0.029018036    0.000000    0.000000    0.000000    0.000000  -85.393077   64.188904  -27.754425 -179.519135
  0.029218437    0.000000    0.000000    0.000000    0.000000  -83.817006   59.642136  -28.665477  173.315033
  0.029418838    0.000000    0.000000    0.000000    0.000000  -83.935984   59.933510  -30.022366  167.518524
  0.029619238    0.000000    0.000000    0.000000    0.000000  -82.635620   54.863079  -31.161844  161.681061
  0.029819639    0.000000    0.000000    0.000000    0.000000  -84.666302   55.776688  -32.432999  156.192719
  0.030020040    0.000000    0.000000    0.000000    0.000000  -86.082142   70.906815  -34.137220  146.137436
  0.030220441    0.000000    0.000000    0.000000    0.000000  -85.831544   68.611183  -35.740559  138.910187
  0.030420842    0.000000    0.000000    0.000000    0.000000  -84.960402   67.877357  -37.994831  134.700470
  0.030621242    0.000000    0.000000    0.000000    0.000000  -84.204389   77.157921  -39.389962  128.157623
  0.030821643    0.000000    0.000000    0.000000    0.000000  -84.935421   59.591473  -41.153469  118.671364
  0.031022044    0.000000    0.000000    0.000000    0.000000  -88.538243   52.131062  -42.720723  111.091949
  0.031222445    0.000000    0.000000    0.000000    0.000000  -89.064754   83.283401  -43.166729  111.239189
  0.031422846    0.000000    0.000000    0.000000    0.000000  -82.355234   58.276390  -47.183423  114.695229
  0.031623246    0.000000    0.000000    0.000000    0.000000  -84.806541   67.209625  -47.478060   89.101082
  0.031823647    0.000000    0.000000    0.000000    0.000000  -82.635581   62.638123  -50.100325   40.952030
  0.032024048    0.000000    0.000000    0.000000    0.000000  -86.609048   60.422619  -50.750591   59.498783
  0.032224449    0.000000    0.000000    0.000000    0.000000  -83.969910   88.248055  -51.095649   15.355228
  0.032424850    0.000000    0.000000    0.000000    0.000000  -85.812593   56.549232  -55.179461   38.326725
  0.032625251    0.000000    0.000000    0.000000    0.000000  -88.324311   84.578186  -51.760877   25.139637
  0.032825651    0.000000    0.000000    0.000000    0.000000  -84.942754   65.694412  -51.716307    3.930008
  0.033026052    0.000000    0.000000    0.000000    0.000000  -85.026100   85.757751  -58.343945   30.846497
  0.033226453    0.000000    0.000000    0.000000    0.000000  -86.402168   60.506454  -51.159838   -7.579078
  0.033426854    0.000000    0.000000    0.000000    0.000000  -83.213531   54.114346  -53.660012   -0.041631
  0.033627255    0.000000    0.000000    0.000000    0.000000  -82.991161   67.674820  -55.077600  -12.784531
  0.033827655    0.000000    0.000000    0.000000    0.000000  -85.892066   52.995541  -66.169314  -61.928951
  0.034028056    0.000000    0.000000    0.000000    0.000000  -85.478977   63.162228  -53.332265   35.392921
  0.034228457    0.000000    0.000000    0.000000    0.000000  -83.285455   81.529427  -61.226506   57.365524
  0.034428858    0.000000    0.000000    0.000000    0.000000  -85.274065   86.587967  -61.712648  -17.762335
  0.034629259    0.000000    0.000000    0.000000    0.000000  -89.059508   74.265938  -56.587149   11.389051
  0.034829659    0.000000    0.000000    0.000000    0.000000  -85.998548   54.362934  -55.875312   30.189983
  0.035030060    0.000000    0.000000    0.000000    0.000000  -84.823587   83.675720  -57.357698  125.060410
  0.035230461    0.000000    0.000000    0.000000    0.000000  -85.533850   72.047646  -76.501822  -83.206863
  0.035430862    0.000000    0.000000    0.000000    0.000000  -85.788545   83.881645  -54.226568   43.797962
  0.035631263    0.000000    0.000000    0.000000    0.000000  -84.115116   97.784027  -53.087242   70.384064
  0.035831663    0.000000    0.000000    0.000000    0.000000  -86.166624   34.718212  -56.478873   62.956085
  0.036032064    0.000000    0.000000    0.000000    0.000000  -87.710811   42.660934  -52.498096   63.025948
  0.036232465    0.000000    0.000000    0.000000    0.000000  -83.302080   71.460884  -48.818076   68.305420
  0.036432866    0.000000    0.000000    0.000000    0.000000  -86.594154   72.532898  -48.773985   54.916351
  0.036633267    0.000000    0.000000    0.000000    0.000000  -88.280689   45.300404  -51.746412   58.077862
  0.036833667    0.000000    0.000000    0.000000    0.000000  -84.252751   55.552803  -49.909229   46.256676
  0.037034068    0.000000    0.000000    0.000000    0.000000  -87.757965   43.830585  -46.189746   57.057907
  0.037234469    0.000000    0.000000    0.000000    0.000000  -83.926940   58.789036  -49.057413   80.963425
  0.037434870    0.000000    0.000000    0.000000    0.000000  -85.005476   83.398666  -46.876984   74.251366
  0.037635271    0.000000    0.000000    0.000000    0.000000  -82.277544   71.053886  -46.314254   50.524654
  0.037835671    0.000000    0.000000    0.000000    0.000000  -83.085775   65.094376  -47.024444   51.225426
  0.038036072    0.000000    0.000000    0.000000    0.000000  -87.164906   58.761246  -47.513897   53.177788
  0.038236473    0.000000    0.000000    0.000000    0.000000  -85.041898   81.451530  -48.246890   63.801472
  0.038436874    0.000000    0.000000    0.000000    0.000000  -87.099211   47.966148  -47.803842   53.056030
  0.038637275    0.000000    0.000000    0.000000    0.000000  -87.396468   54.396492  -46.303722   43.173405
  0.038837675    0.000000    0.000000    0.000000    0.000000  -90.816842  110.988869  -45.195308   60.023449
  0.039038076    0.000000    0.000000    0.000000    0.000000  -85.836933   87.268333  -46.167526   49.819626
  0.039238477    0.000000    0.000000    0.000000    0.000000  -84.160670   68.919495  -47.039974   49.436890
  0.039438878    0.000000    0.000000    0.000000    0.000000  -83.816428   87.386604  -45.507231   48.349106
  0.039639279    0.000000    0.000000    0.000000    0.000000  -85.484200   51.917950  -45.323691   53.674057
  0.039839679    0.000000    0.000000    0.000000    0.000000  -85.693451   72.748474  -46.161358   51.108429
  0.040040080    0.000000    0.000000    0.000000    0.000000  -81.858082   72.914253  -45.306712   45.781975
  0.040240481    0.000000    0.000000    0.000000    0.000000  -86.502012   52.286190  -46.189736   55.331650
  0.040440882    0.000000    0.000000    0.000000    0.000000  -85.924859   76.433830  -46.344552   50.609344
  0.040641283    0.000000    0.000000    0.000000    0.000000  -83.465578   66.099266  -47.417015   51.893803
  0.040841683    0.000000    0.000000    0.000000    0.000000  -84.874867   68.891571  -46.140196   35.667995
  0.041042084    0.000000    0.000000    0.000000    0.000000  -87.971081   63.537971  -46.657197   57.333385
  0.041242485    0.000000    0.000000    0.000000    0.000000  -83.851082   78.376808  -47.187502   60.944065
  0.041442886    0.000000    0.000000    0.000000    0.000000  -86.433139   76.656219  -46.073181   45.033833
  0.041643287    0.000000    0.000000    0.000000    0.000000  -89.060861   71.739532  -47.651161   45.589996
  0.041843687    0.000000    0.000000    0.000000    0.000000  -85.744743   86.210487  -46.395324   36.546097
  0.042044088    0.000000    0.000000    0.000000    0.000000  -85.962429   91.197075  -45.632897   51.867664
  0.042244489    0.000000    0.000000    0.000000    0.000000  -85.567178   50.845383  -45.493860   57.437019
  0.042444890    0.000000    0.000000    0.000000    0.000000  -82.653205   75.970901  -46.531788   51.937023
  0.042645291    0.000000    0.000000    0.000000    0.000000  -87.011976   67.861824  -46.381145   62.559643
  0.042845691    0.000000    0.000000    0.000000    0.000000  -85.530093   63.027332  -45.978040   50.349586
  0.043046092    0.000000    0.000000    0.000000    0.000000  -86.130589   74.305992  -47.317141   38.882767
  0.043246493    0.000000    0.000000    0.000000    0.000000  -85.024975   72.057693  -48.755864   63.453487
  0.043446894    0.000000    0.000000    0.000000    0.000000  -86.073742   80.012329  -46.282751   65.730301
  0.043647295    0.000000    0.000000    0.000000    0.000000  -82.472013   75.146393  -46.049749   64.379356
  0.043847695    0.000000    0.000000    0.000000    0.000000  -83.712542   79.052292  -45.796127   61.987000
  0.044048096    0.000000    0.000000    0.000000    0.000000  -85.742636   79.897942  -49.129045   61.579536
  0.044248497    0.000000    0.000000    0.000000    0.000000  -83.805856   52.128185  -45.806471   74.537376
  0.044448898    0.000000    0.000000    0.000000    0.000000  -85.770673   67.857750  -44.434372   73.077606
  0.044649299    0.000000    0.000000    0.000000    0.000000  -87.337384   59.484348  -43.568282   69.290291
  0.044849699    0.000000    0.000000    0.000000    0.000000  -82.968551   53.520836  -47.192060   70.853012
  0.045050100    0.000000    0.000000    0.000000    0.000000  -89.277064   65.570396  -43.817263   87.129936
  0.045250501    0.000000    0.000000    0.000000    0.000000  -84.018164   35.670933  -42.319148   77.778519
  0.045450902    0.000000    0.000000    0.000000    0.000000  -91.656379   75.713242  -43.834877   83.979439
  0.045651303    0.000000    0.000000    0.000000    0.000000  -88.333446   73.796936  -43.218734   81.178352
  0.045851703    0.000000    0.000000    0.000000    0.000000  -83.522345   81.201950  -43.074645   82.123474
  0.046052104    0.000000    0.000000    0.000000    0.000000  -82.933644   63.711452  -44.607308   88.022194
  0.046252505    0.000000    0.000000    0.000000    0.000000  -87.132385   79.794571  -43.152041   85.991936
  0.046452906    0.000000    0.000000    0.000000    0.000000  -85.851961   59.149574  -42.347574   83.953979
  0.046653307    0.000000    0.000000    0.000000    0.000000  -84.694424   50.074696  -41.569114   84.028946
  0.046853707    0.000000    0.000000    0.000000    0.000000  -86.119857   68.763420  -41.244467   83.129601
  0.047054108    0.000000    0.000000    0.000000    0.000000  -83.645648   76.475372  -40.454727   84.815506
  0.047254509    0.000000    0.000000    0.000000    0.000000  -85.305805   68.083435  -40.529921   86.322327
  0.047454910    0.000000    0.000000    0.000000    0.000000  -87.119721   78.478195  -40.895080   86.920174
  0.047655311    0.000000    0.000000    0.000000    0.000000  -89.108672   62.282917  -39.531639   80.497337
  0.047855711    0.000000    0.000000    0.000000    0.000000  -88.200972   66.526665  -38.820388   85.275673
  0.048056112    0.000000    0.000000    0.000000    0.000000  -88.493560   56.589546  -39.675706   85.850204
  0.048256513    0.000000    0.000000    0.000000    0.000000  -86.498634   63.950214  -38.904160   82.499321
  0.048456914    0.000000    0.000000    0.000000    0.000000  -84.679247   66.592621  -39.372594   92.478462
  0.048657315    0.000000    0.000000    0.000000    0.000000  -86.263209   54.817921  -38.648278   91.047470
  0.048857715    0.000000    0.000000    0.000000    0.000000  -93.022856   72.609108  -38.740842   89.969177
  0.049058116    0.000000    0.000000    0.000000    0.000000  -89.700181   39.536545  -37.568881   82.397934
  0.049258517    0.000000    0.000000    0.000000    0.000000  -83.642866   86.919662  -37.716400   79.634247
  0.049458918    0.000000    0.000000    0.000000    0.000000  -86.200356   65.255569  -37.136416   78.107506
  0.049659319    0.000000    0.000000    0.000000    0.000000  -85.743416   65.932045  -37.159016   82.526062
  0.049859719    0.000000    0.000000    0.000000    0.000000  -84.441960   56.681786  -36.748359   82.824142
  0.050060120    0.000000    0.000000    0.000000    0.000000  -86.121203   82.941978  -37.104276   78.884743
  0.050260521    0.000000    0.000000    0.000000    0.000000  -85.944391   55.639347  -36.843714   81.306404
  0.050460922    0.000000    0.000000    0.000000    0.000000  -91.421604   68.746452  -36.644940   82.306572
  0.050661323    0.000000    0.000000    0.000000    0.000000  -82.279437   81.941490  -36.199566   73.918015
  0.050861723    0.000000    0.000000    0.000000    0.000000  -90.699293   36.973583  -36.326173   78.819519
  0.051062124    0.000000    0.000000    0.000000    0.000000  -83.128535   66.939507  -36.135883   77.132599
  0.051262525    0.000000    0.000000    0.000000    0.000000  -87.989961   69.189407  -35.563729   76.469810
  0.051462926    0.000000    0.000000    0.000000    0.000000  -94.373833   69.768158  -35.832222   72.248184
  0.051663327    0.000000    0.000000    0.000000    0.000000  -90.887078   86.070381  -35.555269   75.299599
  0.051863727    0.000000    0.000000    0.000000    0.000000  -89.385399   56.970657  -35.548442   69.992386
  0.052064128    0.000000    0.000000    0.000000    0.000000  -87.709317   63.401962  -34.894756   72.359779
  0.052264529    0.000000    0.000000    0.000000    0.000000  -82.838216   50.260124  -35.303325   66.659302
  0.052464930    0.000000    0.000000    0.000000    0.000000  -86.670520   83.067429  -34.989129   69.536697
  0.052665331    0.000000    0.000000    0.000000    0.000000  -85.981668   70.201431  -34.838747   68.290764
  0.052865731    0.000000    0.000000    0.000000    0.000000  -87.861856   39.555649  -34.658537   65.840118
