! Anritsu VNA Master:                     Model: MS2036C/10/77
! SN:                                  1601066
! /card0/usr/18may27.balun/5a..m.s2p
! Existing Calibration Information:
! TYPE:                         Current Settings,       Active Cal Settings
! TIME:             	   05/27/2018 04:46:04 PM,    05/27/2018 04:42:15 PM
! INTERNAL TEMP:    	                   52.5 C,                    52.0 C
! # POINTS:         	                      500,                       500
! START FREQ:       	               20.000 MHz,                20.000 MHz
! STOP FREQ:        	              120.000 MHz,               120.000 MHz
! SOURCE POWER:     	                     High,                      High
! IFBW:             	                    50 Hz,                     50 Hz
! AVG FACTOR:       	                       1 ,                        1 
! REF PLANE 1:      	                     0 mm,                      0 mm
! REF PLANE 2:      	                     0 mm,                      0 mm
! CAL TYPE:         	                 Full S11,                  Full S11
! CAL METHOD:       	                     SOLT,                      SOLT
! CAL LINE TYPE:    	                     Coax,                      Coax
! DUT PORT 1:       	                K-Conn(M),                 K-Conn(M)
! DUT PORT 2:       	                K-Conn(M),                 K-Conn(M)
! CAL STATUS:       	        OK: Accuracy High,                        --
# GHZ S DB R 50.0
! FREQ.GHZ       S11DB        S11A       S21DB        S21A       S12DB        S12A       S22DB        S22A
  0.020000000   -0.683747 -126.188438  -90.813705   30.844730    0.000000    0.000000    0.000000    0.000000
  0.020200401   -0.681699 -127.645325  -90.963780   30.120462    0.000000    0.000000    0.000000    0.000000
  0.020400802   -0.679672 -129.091232  -91.635378   30.488943    0.000000    0.000000    0.000000    0.000000
  0.020601202   -0.679439 -130.518066  -91.650478   27.596502    0.000000    0.000000    0.000000    0.000000
  0.020801603   -0.683653 -131.996353  -91.853099   26.828636    0.000000    0.000000    0.000000    0.000000
  0.021002004   -0.691769 -133.495865  -92.901192   33.288776    0.000000    0.000000    0.000000    0.000000
  0.021202405   -0.697078 -135.010101  -92.536041   32.443283    0.000000    0.000000    0.000000    0.000000
  0.021402806   -0.704689 -136.519913  -92.975960   34.256016    0.000000    0.000000    0.000000    0.000000
  0.021603206   -0.707905 -138.041397  -92.901332   33.344494    0.000000    0.000000    0.000000    0.000000
  0.021803607   -0.715994 -139.564117  -93.197151   33.859837    0.000000    0.000000    0.000000    0.000000
  0.022004008   -0.717681 -141.091904  -92.422520   34.287693    0.000000    0.000000    0.000000    0.000000
  0.022204409   -0.724717 -142.662643  -92.675441   39.261478    0.000000    0.000000    0.000000    0.000000
  0.022404810   -0.724831 -144.222549  -92.777251   33.849194    0.000000    0.000000    0.000000    0.000000
  0.022605210   -0.727381 -145.784332  -92.726815   31.929935    0.000000    0.000000    0.000000    0.000000
  0.022805611   -0.728210 -147.310440  -92.281393   34.408436    0.000000    0.000000    0.000000    0.000000
  0.023006012   -0.731413 -148.833130  -92.441907   36.278996    0.000000    0.000000    0.000000    0.000000
  0.023206413   -0.737616 -150.386902  -92.611482   35.425415    0.000000    0.000000    0.000000    0.000000
  0.023406814   -0.748310 -151.946274  -92.896860   28.497244    0.000000    0.000000    0.000000    0.000000
  0.023607214   -0.755172 -153.523804  -92.716438   26.962309    0.000000    0.000000    0.000000    0.000000
  0.023807615   -0.762921 -155.075516  -92.669661   31.240520    0.000000    0.000000    0.000000    0.000000
  0.024008016   -0.773394 -156.654953  -92.664615   27.355410    0.000000    0.000000    0.000000    0.000000
  0.024208417   -0.782337 -158.226868  -93.418899   20.559515    0.000000    0.000000    0.000000    0.000000
  0.024408818   -0.795360 -159.829636  -93.634355   22.098631    0.000000    0.000000    0.000000    0.000000
  0.024609218   -0.808842 -161.447861  -93.973591   15.769838    0.000000    0.000000    0.000000    0.000000
  0.024809619   -0.816903 -163.095932  -93.908123   21.117506    0.000000    0.000000    0.000000    0.000000
  0.025010020   -0.824525 -164.737198  -94.348305   20.690863    0.000000    0.000000    0.000000    0.000000
  0.025210421   -0.834789 -166.381302  -94.642465   15.935207    0.000000    0.000000    0.000000    0.000000
  0.025410822   -0.845581 -168.041656  -95.051011   20.427811    0.000000    0.000000    0.000000    0.000000
  0.025611222   -0.855782 -169.713226  -94.952342   22.669804    0.000000    0.000000    0.000000    0.000000
  0.025811623   -0.868287 -171.403442  -95.056293   18.510252    0.000000    0.000000    0.000000    0.000000
  0.026012024   -0.879304 -173.101288  -95.528512   23.188793    0.000000    0.000000    0.000000    0.000000
  0.026212425   -0.895773 -174.816315  -95.958404   19.655460    0.000000    0.000000    0.000000    0.000000
  0.026412826   -0.912442 -176.536209  -94.687079   25.473059    0.000000    0.000000    0.000000    0.000000
  0.026613226   -0.931962 -178.267441  -96.839026   30.597124    0.000000    0.000000    0.000000    0.000000
  0.026813627   -0.949382  179.993591  -96.007357   25.063704    0.000000    0.000000    0.000000    0.000000
  0.027014028   -0.965935  178.258804  -96.109731   27.645460    0.000000    0.000000    0.000000    0.000000
  0.027214429   -0.980639  176.535110  -95.254258   24.705126    0.000000    0.000000    0.000000    0.000000
  0.027414830   -0.998361  174.803223  -96.021536   21.816282    0.000000    0.000000    0.000000    0.000000
  0.027615230   -1.015055  173.065979  -95.226153   21.997950    0.000000    0.000000    0.000000    0.000000
  0.027815631   -1.037709  171.304855  -95.133106   20.893820    0.000000    0.000000    0.000000    0.000000
  0.028016032   -1.058914  169.534149  -95.405260   24.579683    0.000000    0.000000    0.000000    0.000000
  0.028216433   -1.080958  167.746964  -95.531337   17.277390    0.000000    0.000000    0.000000    0.000000
  0.028416834   -1.104438  165.969040  -95.992345   14.576777    0.000000    0.000000    0.000000    0.000000
  0.028617234   -1.128350  164.190735  -96.321410   19.897694    0.000000    0.000000    0.000000    0.000000
  0.028817635   -1.156761  162.392334  -96.320329   15.180057    0.000000    0.000000    0.000000    0.000000
  0.029018036   -1.184049  160.568665  -96.352021   18.237947    0.000000    0.000000    0.000000    0.000000
  0.029218437   -1.210830  158.721588  -97.055643   14.333097    0.000000    0.000000    0.000000    0.000000
  0.029418838   -1.236817  156.879745  -97.049063   14.797118    0.000000    0.000000    0.000000    0.000000
  0.029619238   -1.260832  155.062134  -97.190964   10.004308    0.000000    0.000000    0.000000    0.000000
  0.029819639   -1.286488  153.235214  -95.932007   13.333594    0.000000    0.000000    0.000000    0.000000
  0.030020040   -1.314577  151.410828  -97.078932   16.525482    0.000000    0.000000    0.000000    0.000000
  0.030220441   -1.345585  149.572571  -97.614237   20.073359    0.000000    0.000000    0.000000    0.000000
  0.030420842   -1.382258  147.705841  -97.055868   16.754730    0.000000    0.000000    0.000000    0.000000
  0.030621242   -1.425333  145.801743  -98.129710   19.999723    0.000000    0.000000    0.000000    0.000000
  0.030821643   -1.463066  143.860931  -98.460668   24.569279    0.000000    0.000000    0.000000    0.000000
  0.031022044   -1.497951  141.887589  -97.662669   13.645125    0.000000    0.000000    0.000000    0.000000
  0.031222445   -1.527512  139.899704  -96.661088   10.398488    0.000000    0.000000    0.000000    0.000000
  0.031422846   -1.557607  137.915237  -98.659697   12.441179    0.000000    0.000000    0.000000    0.000000
  0.031623246   -1.589967  135.959274  -98.157833   23.321629    0.000000    0.000000    0.000000    0.000000
  0.031823647   -1.614883  133.986145  -97.527806   13.770938    0.000000    0.000000    0.000000    0.000000
  0.032024048   -1.639737  132.051117  -97.743548   14.203752    0.000000    0.000000    0.000000    0.000000
  0.032224449   -1.670122  130.132248  -97.889382   18.613014    0.000000    0.000000    0.000000    0.000000
  0.032424850   -1.703276  128.202301  -97.971349    5.208261    0.000000    0.000000    0.000000    0.000000
  0.032625251   -1.741521  126.276619  -96.767573   16.249228    0.000000    0.000000    0.000000    0.000000
  0.032825651   -1.782273  124.364578  -97.822670   13.807914    0.000000    0.000000    0.000000    0.000000
  0.033026052   -1.830040  122.394325  -97.555499    8.136425    0.000000    0.000000    0.000000    0.000000
  0.033226453   -1.878430  120.434769  -97.228188   12.480217    0.000000    0.000000    0.000000    0.000000
  0.033426854   -1.929032  118.453514  -98.611585    5.893435    0.000000    0.000000    0.000000    0.000000
  0.033627255   -1.977067  116.419754  -97.454237    8.118763    0.000000    0.000000    0.000000    0.000000
  0.033827655   -2.026014  114.387993  -98.857347    7.735008    0.000000    0.000000    0.000000    0.000000
  0.034028056   -2.078285  112.323814  -98.746739   16.644945    0.000000    0.000000    0.000000    0.000000
  0.034228457   -2.128835  110.246117  -99.508327   13.244730    0.000000    0.000000    0.000000    0.000000
  0.034428858   -2.180712  108.162086  -99.633720   13.317878    0.000000    0.000000    0.000000    0.000000
  0.034629259   -2.222139  106.074760  -98.674159   11.974648    0.000000    0.000000    0.000000    0.000000
  0.034829659   -2.266243  104.037148  -98.513819   17.238420    0.000000    0.000000    0.000000    0.000000
  0.035030060   -2.304905  101.984543  -97.215951    8.142846    0.000000    0.000000    0.000000    0.000000
  0.035230461   -2.356324   99.995674  -98.348693   16.545687    0.000000    0.000000    0.000000    0.000000
  0.035430862   -2.413369   97.974319  -98.301741    6.658731    0.000000    0.000000    0.000000    0.000000
  0.035631263   -2.476001   95.959503  -98.622934    9.478946    0.000000    0.000000    0.000000    0.000000
  0.035831663   -2.539918   93.873077  -97.472660   13.141989    0.000000    0.000000    0.000000    0.000000
  0.036032064   -2.607093   91.749023  -98.689825    8.008317    0.000000    0.000000    0.000000    0.000000
  0.036232465   -2.670136   89.593307  -99.136903    7.397323    0.000000    0.000000    0.000000    0.000000
  0.036432866   -2.732746   87.411484  -98.551966   10.478674    0.000000    0.000000    0.000000    0.000000
  0.036633267   -2.788458   85.215950  -98.592367    6.387757    0.000000    0.000000    0.000000    0.000000
  0.036833667   -2.841600   83.050598  -99.142673   13.712372    0.000000    0.000000    0.000000    0.000000
  0.037034068   -2.893730   80.850334  -99.203087    2.371218    0.000000    0.000000    0.000000    0.000000
  0.037234469   -2.944099   78.719589  -98.577248   -0.663977    0.000000    0.000000    0.000000    0.000000
  0.037434870   -2.993729   76.616081  -98.591700   -2.291993    0.000000    0.000000    0.000000    0.000000
  0.037635271   -3.047255   74.520500  -99.284552   -5.227554    0.000000    0.000000    0.000000    0.000000
  0.037835671   -3.101026   72.430069  -99.133056    9.521227    0.000000    0.000000    0.000000    0.000000
  0.038036072   -3.161282   70.327827  -99.764334    7.419686    0.000000    0.000000    0.000000    0.000000
  0.038236473   -3.223597   68.236824 -100.268722   -5.915028    0.000000    0.000000    0.000000    0.000000
  0.038436874   -3.293278   66.119827  -99.769120   16.723051    0.000000    0.000000    0.000000    0.000000
  0.038637275   -3.361506   63.966072 -100.993561    5.609318    0.000000    0.000000    0.000000    0.000000
  0.038837675   -3.435323   61.786663 -100.124853    5.065329    0.000000    0.000000    0.000000    0.000000
  0.039038076   -3.505725   59.565948 -100.990357   -0.436449    0.000000    0.000000    0.000000    0.000000
  0.039238477   -3.568985   57.333679 -102.436617   12.549918    0.000000    0.000000    0.000000    0.000000
  0.039438878   -3.628250   55.100384  -99.578182   12.734511    0.000000    0.000000    0.000000    0.000000
  0.039639279   -3.682470   52.919483 -101.231224   11.944610    0.000000    0.000000    0.000000    0.000000
  0.039839679   -3.732120   50.779427  -99.276836    4.672186    0.000000    0.000000    0.000000    0.000000
  0.040040080   -3.785725   48.680042 -101.101157   14.870430    0.000000    0.000000    0.000000    0.000000
  0.040240481   -3.842387   46.621769 -100.305964   11.228106    0.000000    0.000000    0.000000    0.000000
  0.040440882   -3.906196   44.531399  -98.427086   -0.910114    0.000000    0.000000    0.000000    0.000000
  0.040641283   -3.972952   42.437038 -100.593140   22.449738    0.000000    0.000000    0.000000    0.000000
  0.040841683   -4.040402   40.331593  -99.589254   -2.913166    0.000000    0.000000    0.000000    0.000000
  0.041042084   -4.106447   38.241695  -99.273224    1.081027    0.000000    0.000000    0.000000    0.000000
  0.041242485   -4.170994   36.118710  -99.617173   -0.041601    0.000000    0.000000    0.000000    0.000000
  0.041442886   -4.235280   34.017902  -99.555438   -1.260025    0.000000    0.000000    0.000000    0.000000
  0.041643287   -4.300867   31.907806 -100.798754   -9.299326    0.000000    0.000000    0.000000    0.000000
  0.041843687   -4.359792   29.785618 -101.285922   -0.660194    0.000000    0.000000    0.000000    0.000000
  0.042044088   -4.419228   27.680664 -100.842379    2.390606    0.000000    0.000000    0.000000    0.000000
  0.042244489   -4.478184   25.576984 -103.665021    7.677262    0.000000    0.000000    0.000000    0.000000
  0.042444890   -4.538018   23.501015 -100.664362    4.813712    0.000000    0.000000    0.000000    0.000000
  0.042645291   -4.597651   21.403084 -101.242261    2.884662    0.000000    0.000000    0.000000    0.000000
  0.042845691   -4.658187   19.309975 -101.516495    5.518778    0.000000    0.000000    0.000000    0.000000
  0.043046092   -4.715906   17.206743  -99.833266    1.019560    0.000000    0.000000    0.000000    0.000000
  0.043246493   -4.774143   15.097673 -104.016289   13.889441    0.000000    0.000000    0.000000    0.000000
  0.043446894   -4.834143   12.954045 -101.536909   15.829510    0.000000    0.000000    0.000000    0.000000
  0.043647295   -4.894331   10.829923 -102.613251   -2.425503    0.000000    0.000000    0.000000    0.000000
  0.043847695   -4.954407    8.702340 -102.947564    6.687195    0.000000    0.000000    0.000000    0.000000
  0.044048096   -5.008357    6.571875 -100.770822    4.830809    0.000000    0.000000    0.000000    0.000000
  0.044248497   -5.061609    4.433474 -100.937029   -1.666699    0.000000    0.000000    0.000000    0.000000
  0.044448898   -5.106541    2.290395 -102.061716   16.284861    0.000000    0.000000    0.000000    0.000000
  0.044649299   -5.156146    0.172149 -102.547079   17.076031    0.000000    0.000000    0.000000    0.000000
  0.044849699   -5.198169   -1.898658  -99.748448    4.138720    0.000000    0.000000    0.000000    0.000000
  0.045050100   -5.244529   -3.962296 -101.654310   -0.565601    0.000000    0.000000    0.000000    0.000000
  0.045250501   -5.285046   -6.021441 -101.531647   -3.679557    0.000000    0.000000    0.000000    0.000000
  0.045450902   -5.327097   -8.045341 -100.097729    1.029316    0.000000    0.000000    0.000000    0.000000
  0.045651303   -5.368912  -10.061272  -99.327755    4.485181    0.000000    0.000000    0.000000    0.000000
  0.045851703   -5.408289  -12.055503  -99.771926    1.570888    0.000000    0.000000    0.000000    0.000000
  0.046052104   -5.444817  -14.013250 -102.267239   -7.869647    0.000000    0.000000    0.000000    0.000000
  0.046252505   -5.481338  -15.953251 -100.633985   -2.680223    0.000000    0.000000    0.000000    0.000000
  0.046452906   -5.519594  -17.850767 -100.500772   -3.140718    0.000000    0.000000    0.000000    0.000000
  0.046653307   -5.555968  -19.702517 -102.046174    3.354500    0.000000    0.000000    0.000000    0.000000
  0.046853707   -5.597816  -21.563602 -103.649713    0.134160    0.000000    0.000000    0.000000    0.000000
  0.047054108   -5.636861  -23.417616 -102.882527  -10.129635    0.000000    0.000000    0.000000    0.000000
  0.047254509   -5.677256  -25.272882 -101.406838   -4.365271    0.000000    0.000000    0.000000    0.000000
  0.047454910   -5.715146  -27.128593 -101.699793   -1.003996    0.000000    0.000000    0.000000    0.000000
  0.047655311   -5.757081  -28.971689 -105.532606    6.834486    0.000000    0.000000    0.000000    0.000000
  0.047855711   -5.798550  -30.811329 -104.178620   -1.488302    0.000000    0.000000    0.000000    0.000000
  0.048056112   -5.844224  -32.663536 -103.729954    3.204980    0.000000    0.000000    0.000000    0.000000
  0.048256513   -5.884291  -34.536758 -102.649097   25.264145    0.000000    0.000000    0.000000    0.000000
  0.048456914   -5.923086  -36.411362 -103.407195   13.797392    0.000000    0.000000    0.000000    0.000000
  0.048657315   -5.955893  -38.276562 -101.356121    8.761266    0.000000    0.000000    0.000000    0.000000
  0.048857715   -5.988780  -40.142586 -101.504950   13.412226    0.000000    0.000000    0.000000    0.000000
  0.049058116   -6.020222  -41.974579 -103.776524   16.074764    0.000000    0.000000    0.000000    0.000000
  0.049258517   -6.043320  -43.784954 -101.875399   25.054380    0.000000    0.000000    0.000000    0.000000
  0.049458918   -6.075012  -45.563515 -102.397159    7.810557    0.000000    0.000000    0.000000    0.000000
  0.049659319   -6.101672  -47.348721 -100.628656    3.279594    0.000000    0.000000    0.000000    0.000000
  0.049859719   -6.130207  -49.138718 -101.630843    2.164814    0.000000    0.000000    0.000000    0.000000
  0.050060120   -6.157247  -50.924263 -101.411228    0.611939    0.000000    0.000000    0.000000    0.000000
  0.050260521   -6.182502  -52.702759 -102.704536   -0.298749    0.000000    0.000000    0.000000    0.000000
  0.050460922   -6.199931  -54.439667 -101.836626    5.685828    0.000000    0.000000    0.000000    0.000000
  0.050661323   -6.216598  -56.184715 -103.078611   -7.245094    0.000000    0.000000    0.000000    0.000000
  0.050861723   -6.225494  -57.910519 -102.054163   -4.472089    0.000000    0.000000    0.000000    0.000000
  0.051062124   -6.230570  -59.586372 -102.407892   -2.010769    0.000000    0.000000    0.000000    0.000000
  0.051262525   -6.236035  -61.205482 -102.766115   -8.284189    0.000000    0.000000    0.000000    0.000000
  0.051462926   -6.238603  -62.799088 -103.534343   -9.940338    0.000000    0.000000    0.000000    0.000000
  0.051663327   -6.246832  -64.352844 -103.102903    0.197139    0.000000    0.000000    0.000000    0.000000
  0.051863727   -6.254391  -65.868034 -104.175925    0.979635    0.000000    0.000000    0.000000    0.000000
  0.052064128   -6.260090  -67.388527 -103.832582   -1.449427    0.000000    0.000000    0.000000    0.000000
  0.052264529   -6.271268  -68.903923 -103.243886  -15.465538    0.000000    0.000000    0.000000    0.000000
  0.052464930   -6.282266  -70.423111 -102.734361    0.476322    0.000000    0.000000    0.000000    0.000000
  0.052665331   -6.288255  -71.975014 -105.507685    8.659165    0.000000    0.000000    0.000000    0.000000
  0.052865731   -6.298997  -73.472260 -103.218184   29.280123    0.000000    0.000000    0.000000    0.000000
