! Anritsu VNA Master:                     Model: MS2036C/10/77
! SN:                                  1601066
! /card0/usr/346-7bw3.on.s11.s2p
! Existing Calibration Information:
! TYPE:                         Current Settings,       Active Cal Settings
! TIME:             	   06/21/2018 10:02:26 AM,    06/21/2018 09:52:09 AM
! INTERNAL TEMP:    	                   48.5 C,                    48.5 C
! # POINTS:         	                      500,                       500
! START FREQ:       	               20.000 MHz,                20.000 MHz
! STOP FREQ:        	              120.000 MHz,               120.000 MHz
! SOURCE POWER:     	                     High,                      High
! IFBW:             	                    50 Hz,                     50 Hz
! AVG FACTOR:       	                       1 ,                        1 
! REF PLANE 1:      	                     0 mm,                      0 mm
! REF PLANE 2:      	                     0 mm,                      0 mm
! CAL TYPE:         	                 Full S22,                  Full S22
! CAL METHOD:       	                     SOLT,                      SOLT
! CAL LINE TYPE:    	                     Coax,                      Coax
! DUT PORT 1:       	                K-Conn(M),                 K-Conn(M)
! DUT PORT 2:       	                K-Conn(M),                 K-Conn(M)
! CAL STATUS:       	        OK: Accuracy High,                        --
# GHZ S DB R 50.0
! FREQ.GHZ       S11DB        S11A       S21DB        S21A       S12DB        S12A       S22DB        S22A
  0.020000000    0.000000    0.000000    0.000000    0.000000  -92.507625  -52.776695  -50.887416  -67.467178
  0.020200401    0.000000    0.000000    0.000000    0.000000  -93.176136  -53.089882  -50.633141  -67.141731
  0.020400802    0.000000    0.000000    0.000000    0.000000  -93.526826  -54.865089  -50.887417  -65.993073
  0.020601202    0.000000    0.000000    0.000000    0.000000  -92.983989  -59.059116  -50.784607  -65.784081
  0.020801603    0.000000    0.000000    0.000000    0.000000  -93.506418  -60.170082  -50.755348  -65.467476
  0.021002004    0.000000    0.000000    0.000000    0.000000  -93.298828  -57.942223  -51.058617  -66.121361
  0.021202405    0.000000    0.000000    0.000000    0.000000  -93.197196  -61.982018  -50.936730  -67.247543
  0.021402806    0.000000    0.000000    0.000000    0.000000  -94.747816  -57.818958  -50.914341  -64.462532
  0.021603206    0.000000    0.000000    0.000000    0.000000  -93.666859  -64.559883  -51.317319  -64.610176
  0.021803607    0.000000    0.000000    0.000000    0.000000  -94.980833  -67.731712  -51.454746  -64.553986
  0.022004008    0.000000    0.000000    0.000000    0.000000  -93.782104  -68.017128  -51.379621  -64.510056
  0.022204409    0.000000    0.000000    0.000000    0.000000  -94.736694  -63.221462  -51.638287  -64.190750
  0.022404810    0.000000    0.000000    0.000000    0.000000  -95.091231  -71.073303  -51.433798  -65.327888
  0.022605210    0.000000    0.000000    0.000000    0.000000  -95.418924  -68.687424  -51.545430  -63.357601
  0.022805611    0.000000    0.000000    0.000000    0.000000  -95.830940  -71.861862  -52.091041  -63.506493
  0.023006012    0.000000    0.000000    0.000000    0.000000  -94.634453  -71.749802  -51.493830  -62.813457
  0.023206413    0.000000    0.000000    0.000000    0.000000  -95.735550  -72.085243  -52.122891  -65.286209
  0.023406814    0.000000    0.000000    0.000000    0.000000  -96.063260  -84.247879  -51.979064  -60.784496
  0.023607214    0.000000    0.000000    0.000000    0.000000  -95.650465  -82.664925  -51.810188  -63.793644
  0.023807615    0.000000    0.000000    0.000000    0.000000  -96.114971  -82.474167  -51.991958  -63.318970
  0.024008016    0.000000    0.000000    0.000000    0.000000  -96.844004  -84.159416  -51.994772  -64.168068
  0.024208417    0.000000    0.000000    0.000000    0.000000  -96.833482  -86.180229  -52.140383  -63.540901
  0.024408818    0.000000    0.000000    0.000000    0.000000  -97.581565  -79.851784  -52.313810  -61.976547
  0.024609218    0.000000    0.000000    0.000000    0.000000  -96.575078  -91.586250  -52.593156  -62.317787
  0.024809619    0.000000    0.000000    0.000000    0.000000  -97.826903  -81.594383  -52.579132  -61.917011
  0.025010020    0.000000    0.000000    0.000000    0.000000  -97.576931  -85.954971  -52.566153  -61.650784
  0.025210421    0.000000    0.000000    0.000000    0.000000  -98.313354  -83.685257  -52.268108  -60.314560
  0.025410822    0.000000    0.000000    0.000000    0.000000  -97.827763  -86.859543  -52.296757  -58.771271
  0.025611222    0.000000    0.000000    0.000000    0.000000  -97.829946  -87.754662  -52.973597  -62.342640
  0.025811623    0.000000    0.000000    0.000000    0.000000  -98.616894  -92.671707  -52.779289  -60.691612
  0.026012024    0.000000    0.000000    0.000000    0.000000 -100.329436  -97.218376  -52.948642  -62.603977
  0.026212425    0.000000    0.000000    0.000000    0.000000  -98.915702 -100.621216  -52.369086  -59.616787
  0.026412826    0.000000    0.000000    0.000000    0.000000  -98.752549 -100.106453  -52.626809  -59.017918
  0.026613226    0.000000    0.000000    0.000000    0.000000  -98.560249  -94.751801  -52.852235  -57.671146
  0.026813627    0.000000    0.000000    0.000000    0.000000  -98.666068 -103.323799  -53.060109  -59.106518
  0.027014028    0.000000    0.000000    0.000000    0.000000  -99.049439  -94.648804  -52.962990  -57.842609
  0.027214429    0.000000    0.000000    0.000000    0.000000  -99.896682  -99.533035  -52.877887  -59.291935
  0.027414830    0.000000    0.000000    0.000000    0.000000 -100.309287  -99.099487  -52.972747  -57.030006
  0.027615230    0.000000    0.000000    0.000000    0.000000 -100.282496 -101.378189  -53.344343  -58.396664
  0.027815631    0.000000    0.000000    0.000000    0.000000 -100.632427 -107.103165  -53.337892  -56.739887
  0.028016032    0.000000    0.000000    0.000000    0.000000 -102.250006 -110.110474  -52.835810  -58.027840
  0.028216433    0.000000    0.000000    0.000000    0.000000 -100.809400 -110.001091  -53.244129  -57.799637
  0.028416834    0.000000    0.000000    0.000000    0.000000 -103.693253  -99.621834  -53.619290  -58.198524
  0.028617234    0.000000    0.000000    0.000000    0.000000 -101.478068 -100.570763  -53.228726  -55.156879
  0.028817635    0.000000    0.000000    0.000000    0.000000 -101.189200 -118.009949  -53.321398  -55.051601
  0.029018036    0.000000    0.000000    0.000000    0.000000 -101.767378 -119.004585  -53.499066  -57.005898
  0.029218437    0.000000    0.000000    0.000000    0.000000 -101.522965 -110.431732  -53.645275  -56.403896
  0.029418838    0.000000    0.000000    0.000000    0.000000 -106.556657 -118.261246  -53.529168  -54.517532
  0.029619238    0.000000    0.000000    0.000000    0.000000 -101.882783 -113.609306  -53.661306  -56.479446
  0.029819639    0.000000    0.000000    0.000000    0.000000 -104.818950 -119.117363  -53.524927  -55.574944
  0.030020040    0.000000    0.000000    0.000000    0.000000 -105.334047 -115.562035  -53.867267  -55.148609
  0.030220441    0.000000    0.000000    0.000000    0.000000 -103.404808 -117.395882  -53.864013  -56.432716
  0.030420842    0.000000    0.000000    0.000000    0.000000 -105.319412 -116.664177  -53.538506  -54.454849
  0.030621242    0.000000    0.000000    0.000000    0.000000 -107.159769 -104.978477  -54.122654  -53.595806
  0.030821643    0.000000    0.000000    0.000000    0.000000 -106.078420 -120.858856  -53.897067  -53.956375
  0.031022044    0.000000    0.000000    0.000000    0.000000 -104.313178 -131.319122  -53.732236  -53.564198
  0.031222445    0.000000    0.000000    0.000000    0.000000 -103.171490 -148.672760  -53.973974  -55.650299
  0.031422846    0.000000    0.000000    0.000000    0.000000 -107.132504 -154.680511  -53.522972  -53.439484
  0.031623246    0.000000    0.000000    0.000000    0.000000 -106.806571 -163.469238  -54.382470  -53.628735
  0.031823647    0.000000    0.000000    0.000000    0.000000 -106.628741 -171.898132  -54.254730  -54.574009
  0.032024048    0.000000    0.000000    0.000000    0.000000 -104.093842 -160.491394  -54.110839  -51.942780
  0.032224449    0.000000    0.000000    0.000000    0.000000 -106.039696 -173.873978  -54.002554  -52.335506
  0.032424850    0.000000    0.000000    0.000000    0.000000 -102.885588  179.119873  -53.910221  -51.469307
  0.032625251    0.000000    0.000000    0.000000    0.000000 -103.661886 -178.673523  -54.364145  -53.035175
  0.032825651    0.000000    0.000000    0.000000    0.000000 -102.828176  175.426895  -54.483307  -50.878765
  0.033026052    0.000000    0.000000    0.000000    0.000000 -105.227316  163.516129  -53.904401  -54.405666
  0.033226453    0.000000    0.000000    0.000000    0.000000 -103.628339 -179.423492  -54.080756  -51.531300
  0.033426854    0.000000    0.000000    0.000000    0.000000 -104.775528  166.561737  -54.609037  -52.309826
  0.033627255    0.000000    0.000000    0.000000    0.000000 -103.102722  175.923798  -54.602036  -49.232964
  0.033827655    0.000000    0.000000    0.000000    0.000000 -104.004681  169.837082  -54.455243  -50.756710
  0.034028056    0.000000    0.000000    0.000000    0.000000 -104.099402  173.259354  -54.400184  -49.544334
  0.034228457    0.000000    0.000000    0.000000    0.000000 -103.167679  161.526932  -54.654924  -50.387428
  0.034428858    0.000000    0.000000    0.000000    0.000000 -104.016921  158.354675  -54.432446  -48.621544
  0.034629259    0.000000    0.000000    0.000000    0.000000 -105.029501  170.163620  -54.695042  -48.054825
  0.034829659    0.000000    0.000000    0.000000    0.000000 -106.409020  168.178268  -54.791808  -50.737438
  0.035030060    0.000000    0.000000    0.000000    0.000000 -104.511376  148.331787  -54.839154  -50.623940
  0.035230461    0.000000    0.000000    0.000000    0.000000 -101.785195  146.550247  -55.110065  -46.674442
  0.035430862    0.000000    0.000000    0.000000    0.000000 -106.553776  149.735199  -54.525494  -47.935238
  0.035631263    0.000000    0.000000    0.000000    0.000000 -102.280416  147.786331  -54.417873  -49.927540
  0.035831663    0.000000    0.000000    0.000000    0.000000 -103.656134  144.715225  -54.739427  -50.046379
  0.036032064    0.000000    0.000000    0.000000    0.000000 -103.208896  164.374573  -54.733027  -49.371628
  0.036232465    0.000000    0.000000    0.000000    0.000000 -101.814904  143.720886  -54.720644  -47.284882
  0.036432866    0.000000    0.000000    0.000000    0.000000 -103.509257  146.935562  -54.791293  -47.872410
  0.036633267    0.000000    0.000000    0.000000    0.000000 -104.744322  148.461136  -54.744234  -46.451561
  0.036833667    0.000000    0.000000    0.000000    0.000000 -101.289819  149.772537  -54.895089  -47.840038
  0.037034068    0.000000    0.000000    0.000000    0.000000 -104.030639  140.662903  -55.236240  -47.589432
  0.037234469    0.000000    0.000000    0.000000    0.000000 -103.277062  145.338959  -55.264834  -46.748028
  0.037434870    0.000000    0.000000    0.000000    0.000000 -106.400967  133.607788  -55.549333  -44.941750
  0.037635271    0.000000    0.000000    0.000000    0.000000 -103.796106  128.287750  -55.335918  -42.662254
  0.037835671    0.000000    0.000000    0.000000    0.000000 -103.687075  135.230774  -54.626797  -46.708466
  0.038036072    0.000000    0.000000    0.000000    0.000000 -103.370238  146.091797  -55.042880  -44.389137
  0.038236473    0.000000    0.000000    0.000000    0.000000 -103.178525  134.388885  -55.350909  -43.417301
  0.038436874    0.000000    0.000000    0.000000    0.000000 -105.455689  132.285294  -54.896566  -45.294022
  0.038637275    0.000000    0.000000    0.000000    0.000000 -104.597907  133.521194  -55.328638  -44.241398
  0.038837675    0.000000    0.000000    0.000000    0.000000 -103.252375  130.292328  -55.912758  -41.236122
  0.039038076    0.000000    0.000000    0.000000    0.000000 -101.099127  112.145248  -55.541710  -44.578304
  0.039238477    0.000000    0.000000    0.000000    0.000000 -103.338389  132.076904  -55.320450  -45.454350
  0.039438878    0.000000    0.000000    0.000000    0.000000 -105.004946  120.207451  -55.554005  -45.339241
  0.039639279    0.000000    0.000000    0.000000    0.000000 -103.831640  120.832085  -55.191114  -43.118088
  0.039839679    0.000000    0.000000    0.000000    0.000000 -104.915881  123.877464  -55.379495  -44.348808
  0.040040080    0.000000    0.000000    0.000000    0.000000 -102.855796  118.839157  -55.112316  -41.360481
  0.040240481    0.000000    0.000000    0.000000    0.000000 -103.186123  111.758636  -55.547533  -42.326462
  0.040440882    0.000000    0.000000    0.000000    0.000000 -101.927271  120.211288  -55.683475  -45.698292
  0.040641283    0.000000    0.000000    0.000000    0.000000 -102.413807  122.120926  -55.125487  -39.417839
  0.040841683    0.000000    0.000000    0.000000    0.000000 -102.943560   98.774147  -56.130417  -41.956253
  0.041042084    0.000000    0.000000    0.000000    0.000000 -103.764615  105.157272  -55.692183  -41.906761
  0.041242485    0.000000    0.000000    0.000000    0.000000 -100.396302  112.405296  -55.856147  -43.542313
  0.041442886    0.000000    0.000000    0.000000    0.000000 -102.497697  124.251663  -55.695419  -43.645828
  0.041643287    0.000000    0.000000    0.000000    0.000000 -103.862992  109.146835  -55.731050  -41.332283
  0.041843687    0.000000    0.000000    0.000000    0.000000 -100.755217  102.632195  -55.321390  -45.254147
  0.042044088    0.000000    0.000000    0.000000    0.000000 -103.211582  111.934982  -56.422584  -38.715286
  0.042244489    0.000000    0.000000    0.000000    0.000000 -102.873179  104.476974  -55.793739  -39.896332
  0.042444890    0.000000    0.000000    0.000000    0.000000 -102.150501  111.043327  -55.507515  -40.218788
  0.042645291    0.000000    0.000000    0.000000    0.000000 -102.893804   98.800644  -55.926166  -37.880169
  0.042845691    0.000000    0.000000    0.000000    0.000000 -101.082711  102.716560  -55.198163  -42.997387
  0.043046092    0.000000    0.000000    0.000000    0.000000 -105.709314  106.072083  -55.518468  -42.114094
  0.043246493    0.000000    0.000000    0.000000    0.000000 -102.490566  105.390312  -55.512028  -41.028965
  0.043446894    0.000000    0.000000    0.000000    0.000000 -102.227951  103.738777  -55.766929  -42.116493
  0.043647295    0.000000    0.000000    0.000000    0.000000 -103.442424  104.003571  -55.899455  -40.978241
  0.043847695    0.000000    0.000000    0.000000    0.000000 -104.375179   98.773056  -56.103235  -39.083687
  0.044048096    0.000000    0.000000    0.000000    0.000000 -104.951444  103.292747  -55.776258  -39.563869
  0.044248497    0.000000    0.000000    0.000000    0.000000 -102.521426  115.103386  -55.542107  -39.962593
  0.044448898    0.000000    0.000000    0.000000    0.000000 -101.398842  105.357269  -56.043726  -38.962368
  0.044649299    0.000000    0.000000    0.000000    0.000000 -101.529401   86.866249  -56.578639  -38.226837
  0.044849699    0.000000    0.000000    0.000000    0.000000 -101.819029   98.153152  -56.137348  -40.102818
  0.045050100    0.000000    0.000000    0.000000    0.000000 -101.640639   93.692162  -55.707669  -40.320618
  0.045250501    0.000000    0.000000    0.000000    0.000000 -102.414256  100.954376  -55.532036  -40.305134
  0.045450902    0.000000    0.000000    0.000000    0.000000 -103.840641  104.631058  -55.760643  -38.311260
  0.045651303    0.000000    0.000000    0.000000    0.000000 -102.332517  103.608116  -55.764585  -39.030884
  0.045851703    0.000000    0.000000    0.000000    0.000000 -101.491205   90.704124  -55.949031  -36.104534
  0.046052104    0.000000    0.000000    0.000000    0.000000 -101.498599   89.061661  -55.965424  -34.835617
  0.046252505    0.000000    0.000000    0.000000    0.000000 -102.583123   87.082008  -56.514703  -39.006516
  0.046452906    0.000000    0.000000    0.000000    0.000000 -102.687800  104.910179  -56.026255  -34.756512
  0.046653307    0.000000    0.000000    0.000000    0.000000 -100.838153   94.807617  -56.083365  -39.061340
  0.046853707    0.000000    0.000000    0.000000    0.000000 -102.986677   93.477386  -55.877859  -37.645939
  0.047054108    0.000000    0.000000    0.000000    0.000000 -102.853445   95.964836  -56.386028  -35.924583
  0.047254509    0.000000    0.000000    0.000000    0.000000 -100.804680   83.746048  -56.319864  -34.796009
  0.047454910    0.000000    0.000000    0.000000    0.000000 -101.606316   81.124557  -56.418165  -34.520733
  0.047655311    0.000000    0.000000    0.000000    0.000000 -101.887781   87.271553  -56.632963  -34.289700
  0.047855711    0.000000    0.000000    0.000000    0.000000 -101.414255   85.480400  -57.155338  -35.242157
  0.048056112    0.000000    0.000000    0.000000    0.000000 -101.746836   88.723587  -56.386457  -33.605762
  0.048256513    0.000000    0.000000    0.000000    0.000000 -102.420828   88.464462  -55.957187  -37.644730
  0.048456914    0.000000    0.000000    0.000000    0.000000 -103.376808   96.244110  -56.147821  -36.085545
  0.048657315    0.000000    0.000000    0.000000    0.000000 -103.156680   78.663643  -56.048720  -33.507748
  0.048857715    0.000000    0.000000    0.000000    0.000000 -101.895537   85.979828  -56.691156  -31.006620
  0.049058116    0.000000    0.000000    0.000000    0.000000 -102.024309   89.707985  -56.302852  -34.945251
  0.049258517    0.000000    0.000000    0.000000    0.000000 -100.193691   84.777153  -56.401439  -36.680714
  0.049458918    0.000000    0.000000    0.000000    0.000000 -100.085194   86.014587  -56.290377  -37.242565
  0.049659319    0.000000    0.000000    0.000000    0.000000 -100.332224   86.883293  -56.819713  -38.635643
  0.049859719    0.000000    0.000000    0.000000    0.000000 -101.558490   80.802811  -56.754498  -36.517200
  0.050060120    0.000000    0.000000    0.000000    0.000000 -102.757428   76.636276  -56.541525  -34.386803
  0.050260521    0.000000    0.000000    0.000000    0.000000 -100.864436   77.889412  -56.375660  -34.638111
  0.050460922    0.000000    0.000000    0.000000    0.000000 -101.121216   73.991150  -55.931969  -36.160042
  0.050661323    0.000000    0.000000    0.000000    0.000000 -101.340243   76.884712  -56.301049  -33.596024
  0.050861723    0.000000    0.000000    0.000000    0.000000 -103.160271   76.857185  -56.226081  -36.029171
  0.051062124    0.000000    0.000000    0.000000    0.000000 -101.003804   87.809868  -56.652983  -36.893330
  0.051262525    0.000000    0.000000    0.000000    0.000000 -101.961743   83.401779  -56.725566  -33.302620
  0.051462926    0.000000    0.000000    0.000000    0.000000 -100.338727   76.767273  -56.362235  -32.006084
  0.051663327    0.000000    0.000000    0.000000    0.000000  -99.421879   73.441750  -56.440007  -32.328197
  0.051863727    0.000000    0.000000    0.000000    0.000000 -102.468565   61.781075  -55.861048  -36.205441
  0.052064128    0.000000    0.000000    0.000000    0.000000 -102.572419   83.073257  -56.301907  -34.000034
  0.052264529    0.000000    0.000000    0.000000    0.000000 -101.210836   75.703667  -57.287783  -36.572083
  0.052464930    0.000000    0.000000    0.000000    0.000000 -101.863506   65.870560  -55.808680  -35.968189
  0.052665331    0.000000    0.000000    0.000000    0.000000 -101.084990   63.738636  -56.688342  -31.032951
  0.052865731    0.000000    0.000000    0.000000    0.000000 -101.204921   67.461563  -56.771464  -33.265789
