! Anritsu VNA Master:                     Model: MS2036C/10/77
! SN:                                  1601066
! /card0/usr/346-7bw3.off.s11.s2p
! Existing Calibration Information:
! TYPE:                         Current Settings,       Active Cal Settings
! TIME:             	   06/21/2018 09:58:51 AM,    06/21/2018 09:52:09 AM
! INTERNAL TEMP:    	                   48.3 C,                    48.5 C
! # POINTS:         	                      500,                       500
! START FREQ:       	               20.000 MHz,                20.000 MHz
! STOP FREQ:        	              120.000 MHz,               120.000 MHz
! SOURCE POWER:     	                     High,                      High
! IFBW:             	                    50 Hz,                     50 Hz
! AVG FACTOR:       	                       1 ,                        1 
! REF PLANE 1:      	                     0 mm,                      0 mm
! REF PLANE 2:      	                     0 mm,                      0 mm
! CAL TYPE:         	                 Full S22,                  Full S22
! CAL METHOD:       	                     SOLT,                      SOLT
! CAL LINE TYPE:    	                     Coax,                      Coax
! DUT PORT 1:       	                K-Conn(M),                 K-Conn(M)
! DUT PORT 2:       	                K-Conn(M),                 K-Conn(M)
! CAL STATUS:       	        OK: Accuracy High,                        --
# GHZ S DB R 50.0
! FREQ.GHZ       S11DB        S11A       S21DB        S21A       S12DB        S12A       S22DB        S22A
  0.020000000    0.000000    0.000000    0.000000    0.000000  -93.109444  -48.836773  -42.826355  -24.481911
  0.020200401    0.000000    0.000000    0.000000    0.000000  -92.507070  -53.419018  -42.740032  -23.617100
  0.020400802    0.000000    0.000000    0.000000    0.000000  -92.690705  -57.929401  -42.777179  -23.123682
  0.020601202    0.000000    0.000000    0.000000    0.000000  -93.192074  -58.631123  -42.710735  -23.657743
  0.020801603    0.000000    0.000000    0.000000    0.000000  -93.750446  -59.961323  -42.650601  -23.952898
  0.021002004    0.000000    0.000000    0.000000    0.000000  -93.453015  -58.099255  -42.785495  -23.639732
  0.021202405    0.000000    0.000000    0.000000    0.000000  -92.973414  -60.409622  -42.762412  -23.900347
  0.021402806    0.000000    0.000000    0.000000    0.000000  -93.738074  -66.004379  -42.849795  -23.478764
  0.021603206    0.000000    0.000000    0.000000    0.000000  -94.288188  -63.685162  -42.746776  -22.761148
  0.021803607    0.000000    0.000000    0.000000    0.000000  -93.356897  -66.812706  -42.821036  -22.447657
  0.022004008    0.000000    0.000000    0.000000    0.000000  -94.625156  -66.506401  -42.883773  -22.512821
  0.022204409    0.000000    0.000000    0.000000    0.000000  -94.684060  -62.635971  -42.849817  -22.556652
  0.022404810    0.000000    0.000000    0.000000    0.000000  -94.779896  -69.460297  -42.867635  -22.632557
  0.022605210    0.000000    0.000000    0.000000    0.000000  -94.582389  -68.938698  -42.794480  -22.367039
  0.022805611    0.000000    0.000000    0.000000    0.000000  -95.694019  -74.993332  -42.918897  -22.330814
  0.023006012    0.000000    0.000000    0.000000    0.000000  -95.343435  -76.730209  -42.803533  -21.649517
  0.023206413    0.000000    0.000000    0.000000    0.000000  -95.416352  -78.975815  -42.968982  -21.688362
  0.023406814    0.000000    0.000000    0.000000    0.000000  -95.374899  -77.134308  -42.900855  -21.694950
  0.023607214    0.000000    0.000000    0.000000    0.000000  -96.989529  -76.913048  -42.902748  -21.825129
  0.023807615    0.000000    0.000000    0.000000    0.000000  -95.823048  -68.036781  -42.877836  -21.427113
  0.024008016    0.000000    0.000000    0.000000    0.000000  -96.349920  -85.100235  -42.903936  -21.354639
  0.024208417    0.000000    0.000000    0.000000    0.000000  -96.442608  -84.187096  -42.924010  -21.735426
  0.024408818    0.000000    0.000000    0.000000    0.000000  -95.880214  -86.216888  -42.952499  -21.315258
  0.024609218    0.000000    0.000000    0.000000    0.000000  -97.138949  -80.859795  -42.985087  -20.395847
  0.024809619    0.000000    0.000000    0.000000    0.000000  -96.782352  -91.985596  -42.995228  -20.664417
  0.025010020    0.000000    0.000000    0.000000    0.000000  -98.536805  -87.256157  -42.980349  -20.660139
  0.025210421    0.000000    0.000000    0.000000    0.000000  -98.100606  -92.362587  -42.977919  -20.486393
  0.025410822    0.000000    0.000000    0.000000    0.000000  -98.149586  -94.413956  -42.943698  -20.779074
  0.025611222    0.000000    0.000000    0.000000    0.000000  -99.800355  -92.822227  -42.981115  -20.274323
  0.025811623    0.000000    0.000000    0.000000    0.000000  -98.587436  -88.011871  -43.016224  -19.916853
  0.026012024    0.000000    0.000000    0.000000    0.000000  -99.655895  -94.418137  -43.055792  -20.340647
  0.026212425    0.000000    0.000000    0.000000    0.000000  -99.085860 -100.351372  -42.779879  -20.449867
  0.026412826    0.000000    0.000000    0.000000    0.000000 -100.996419  -93.272003  -42.975500  -19.635443
  0.026613226    0.000000    0.000000    0.000000    0.000000 -100.661233  -96.078568  -43.021876  -19.460693
  0.026813627    0.000000    0.000000    0.000000    0.000000 -100.113683 -101.093933  -43.033882  -19.515331
  0.027014028    0.000000    0.000000    0.000000    0.000000  -99.918929 -101.497940  -42.987872  -19.134880
  0.027214429    0.000000    0.000000    0.000000    0.000000  -99.795770  -96.926262  -43.040491  -19.962746
  0.027414830    0.000000    0.000000    0.000000    0.000000 -100.037778 -106.649994  -42.981867  -19.385403
  0.027615230    0.000000    0.000000    0.000000    0.000000 -101.541702 -104.766281  -42.982928  -19.343086
  0.027815631    0.000000    0.000000    0.000000    0.000000 -101.984967  -98.461006  -43.054918  -19.649744
  0.028016032    0.000000    0.000000    0.000000    0.000000 -101.665060 -113.756500  -42.958571  -19.933723
  0.028216433    0.000000    0.000000    0.000000    0.000000 -103.162974  -91.235100  -43.049314  -19.419609
  0.028416834    0.000000    0.000000    0.000000    0.000000 -100.847375 -105.807625  -43.091435  -18.691210
  0.028617234    0.000000    0.000000    0.000000    0.000000 -102.421140 -114.572800  -43.060944  -18.812531
  0.028817635    0.000000    0.000000    0.000000    0.000000 -103.763856 -104.741295  -43.049688  -19.345150
  0.029018036    0.000000    0.000000    0.000000    0.000000 -102.012826 -123.015877  -43.063625  -19.246750
  0.029218437    0.000000    0.000000    0.000000    0.000000 -104.740935 -104.741020  -43.002608  -18.818119
  0.029418838    0.000000    0.000000    0.000000    0.000000 -103.452652 -119.583092  -43.042325  -18.484173
  0.029619238    0.000000    0.000000    0.000000    0.000000 -102.436258 -123.570976  -43.101581  -18.006395
  0.029819639    0.000000    0.000000    0.000000    0.000000 -104.590284 -112.893074  -42.991877  -18.316641
  0.030020040    0.000000    0.000000    0.000000    0.000000 -104.155335 -110.820175  -43.111945  -18.498362
  0.030220441    0.000000    0.000000    0.000000    0.000000 -103.680661 -123.941528  -43.109098  -18.887121
  0.030420842    0.000000    0.000000    0.000000    0.000000 -104.230287 -116.586655  -43.044079  -19.083910
  0.030621242    0.000000    0.000000    0.000000    0.000000 -106.464472 -115.951965  -43.096329  -17.637554
  0.030821643    0.000000    0.000000    0.000000    0.000000 -105.844269 -127.864792  -43.047636  -18.339529
  0.031022044    0.000000    0.000000    0.000000    0.000000 -104.582592 -126.653290  -42.977628  -17.967794
  0.031222445    0.000000    0.000000    0.000000    0.000000 -105.143223 -148.239578  -43.007835  -18.235065
  0.031422846    0.000000    0.000000    0.000000    0.000000 -104.897826 -174.278778  -42.983413  -18.321226
  0.031623246    0.000000    0.000000    0.000000    0.000000 -103.861891 -162.670715  -43.056272  -17.768589
  0.031823647    0.000000    0.000000    0.000000    0.000000 -102.771473 -170.124664  -43.151849  -17.495848
  0.032024048    0.000000    0.000000    0.000000    0.000000 -104.083536  177.946762  -43.056908  -17.171846
  0.032224449    0.000000    0.000000    0.000000    0.000000 -103.843576 -162.271332  -42.962401  -17.387075
  0.032424850    0.000000    0.000000    0.000000    0.000000 -104.994261 -176.499252  -42.966537  -17.185202
  0.032625251    0.000000    0.000000    0.000000    0.000000 -105.104265 -174.220444  -43.105907  -17.443359
  0.032825651    0.000000    0.000000    0.000000    0.000000 -103.217452 -171.298904  -43.172923  -17.647385
  0.033026052    0.000000    0.000000    0.000000    0.000000 -105.597339  177.883148  -43.090100  -18.477463
  0.033226453    0.000000    0.000000    0.000000    0.000000 -103.614517 -177.971939  -43.017950  -17.865263
  0.033426854    0.000000    0.000000    0.000000    0.000000 -106.348564 -166.005859  -43.117110  -16.868521
  0.033627255    0.000000    0.000000    0.000000    0.000000 -105.689709  167.853073  -43.099004  -16.481333
  0.033827655    0.000000    0.000000    0.000000    0.000000 -105.106048  170.984879  -43.009469  -17.293303
  0.034028056    0.000000    0.000000    0.000000    0.000000 -106.100025  169.872437  -43.002463  -17.442963
  0.034228457    0.000000    0.000000    0.000000    0.000000 -105.358720  164.257675  -43.117847  -17.569208
  0.034428858    0.000000    0.000000    0.000000    0.000000 -106.096361  155.574417  -43.064523  -16.619482
  0.034629259    0.000000    0.000000    0.000000    0.000000 -107.571521  166.979919  -43.208938  -16.686636
  0.034829659    0.000000    0.000000    0.000000    0.000000 -102.150962  160.921600  -43.067600  -17.534296
  0.035030060    0.000000    0.000000    0.000000    0.000000 -108.530271  149.724747  -43.233692  -17.297157
  0.035230461    0.000000    0.000000    0.000000    0.000000 -106.120522  158.701508  -43.131628  -15.952868
  0.035430862    0.000000    0.000000    0.000000    0.000000 -102.648858  160.997147  -43.074661  -16.635622
  0.035631263    0.000000    0.000000    0.000000    0.000000 -105.309529  152.496902  -43.070009  -17.042089
  0.035831663    0.000000    0.000000    0.000000    0.000000 -103.529829  143.358643  -43.058391  -17.077845
  0.036032064    0.000000    0.000000    0.000000    0.000000 -107.998447  148.560669  -43.041397  -16.123592
  0.036232465    0.000000    0.000000    0.000000    0.000000 -101.833445  136.746918  -43.030756  -17.407206
  0.036432866    0.000000    0.000000    0.000000    0.000000 -106.657781  150.976608  -43.114690  -17.318920
  0.036633267    0.000000    0.000000    0.000000    0.000000 -108.269037  133.655548  -43.178805  -16.573971
  0.036833667    0.000000    0.000000    0.000000    0.000000 -104.340464  133.688110  -43.065462  -16.654011
  0.037034068    0.000000    0.000000    0.000000    0.000000 -102.070650  133.979904  -43.102280  -15.548655
  0.037234469    0.000000    0.000000    0.000000    0.000000 -104.877791  145.011032  -43.151857  -16.373112
  0.037434870    0.000000    0.000000    0.000000    0.000000 -104.100134  133.184845  -43.106725  -16.638479
  0.037635271    0.000000    0.000000    0.000000    0.000000 -104.052492  115.390175  -43.065439  -16.474033
  0.037835671    0.000000    0.000000    0.000000    0.000000 -103.544472  123.869812  -42.980185  -16.212307
  0.038036072    0.000000    0.000000    0.000000    0.000000 -101.871331  137.487671  -42.988958  -16.284290
  0.038236473    0.000000    0.000000    0.000000    0.000000 -103.872751  135.330429  -43.015049  -15.710711
  0.038436874    0.000000    0.000000    0.000000    0.000000 -102.331511  124.970123  -43.120104  -16.051430
  0.038637275    0.000000    0.000000    0.000000    0.000000 -102.577908  138.345215  -43.111253  -15.773384
  0.038837675    0.000000    0.000000    0.000000    0.000000 -104.041037  108.230240  -43.131770  -15.747706
  0.039038076    0.000000    0.000000    0.000000    0.000000 -101.840874  130.811157  -43.125012  -16.357704
  0.039238477    0.000000    0.000000    0.000000    0.000000 -102.971028  125.996666  -43.092060  -16.339973
  0.039438878    0.000000    0.000000    0.000000    0.000000 -102.687335  107.837486  -43.276220  -16.008917
  0.039639279    0.000000    0.000000    0.000000    0.000000 -103.084303  108.978531  -42.997781  -16.113819
  0.039839679    0.000000    0.000000    0.000000    0.000000 -104.001060  118.922066  -43.114952  -16.113346
  0.040040080    0.000000    0.000000    0.000000    0.000000 -102.932091  122.970573  -43.003893  -16.255989
  0.040240481    0.000000    0.000000    0.000000    0.000000 -103.611995  138.449142  -43.090866  -15.480277
  0.040440882    0.000000    0.000000    0.000000    0.000000 -103.117062  115.824944  -43.100975  -15.971388
  0.040641283    0.000000    0.000000    0.000000    0.000000 -103.212205  115.735481  -42.969955  -15.696460
  0.040841683    0.000000    0.000000    0.000000    0.000000 -102.908590  107.695206  -43.149947  -15.470157
  0.041042084    0.000000    0.000000    0.000000    0.000000 -103.829234   84.229454  -43.153066  -16.162308
  0.041242485    0.000000    0.000000    0.000000    0.000000 -104.572508  100.619049  -43.026287  -16.143898
  0.041442886    0.000000    0.000000    0.000000    0.000000 -103.461333  102.350334  -43.128036  -15.743323
  0.041643287    0.000000    0.000000    0.000000    0.000000 -102.130271  122.578003  -43.104669  -15.764355
  0.041843687    0.000000    0.000000    0.000000    0.000000 -101.411932  121.672356  -43.068251  -16.534309
  0.042044088    0.000000    0.000000    0.000000    0.000000 -102.937007  112.031853  -43.149279  -14.926050
  0.042244489    0.000000    0.000000    0.000000    0.000000 -104.442327  101.378914  -43.094637  -15.747469
  0.042444890    0.000000    0.000000    0.000000    0.000000 -102.643296  104.779434  -42.991335  -14.772970
  0.042645291    0.000000    0.000000    0.000000    0.000000 -103.881069   97.842049  -43.071526  -14.934014
  0.042845691    0.000000    0.000000    0.000000    0.000000 -102.093583  104.371277  -43.051234  -15.939312
  0.043046092    0.000000    0.000000    0.000000    0.000000 -104.312695  121.623840  -43.004452  -15.359858
  0.043246493    0.000000    0.000000    0.000000    0.000000 -103.166262  105.886093  -43.149276  -15.430835
  0.043446894    0.000000    0.000000    0.000000    0.000000 -102.159629   94.311928  -43.040341  -15.555304
  0.043647295    0.000000    0.000000    0.000000    0.000000 -104.146218  106.363358  -43.126727  -15.750360
  0.043847695    0.000000    0.000000    0.000000    0.000000 -100.647993   94.794777  -43.219211  -15.389837
  0.044048096    0.000000    0.000000    0.000000    0.000000 -102.627440  101.830910  -43.107841  -15.538450
  0.044248497    0.000000    0.000000    0.000000    0.000000 -102.414270   89.430893  -43.042163  -15.738798
  0.044448898    0.000000    0.000000    0.000000    0.000000 -103.767998   94.915565  -43.142308  -15.249331
  0.044649299    0.000000    0.000000    0.000000    0.000000 -102.382887   91.999100  -43.239450  -15.556041
  0.044849699    0.000000    0.000000    0.000000    0.000000 -103.014433   96.634796  -43.129745  -15.651610
  0.045050100    0.000000    0.000000    0.000000    0.000000 -104.225193   87.056381  -43.096998  -15.442060
  0.045250501    0.000000    0.000000    0.000000    0.000000 -102.162081  100.985405  -43.182117  -15.129318
  0.045450902    0.000000    0.000000    0.000000    0.000000 -102.885027   81.080597  -43.166777  -15.408128
  0.045651303    0.000000    0.000000    0.000000    0.000000 -100.571994  102.359543  -43.104878  -15.792325
  0.045851703    0.000000    0.000000    0.000000    0.000000 -104.452059   92.976234  -43.212093  -14.997004
  0.046052104    0.000000    0.000000    0.000000    0.000000 -101.608777   89.068954  -43.183771  -14.941823
  0.046252505    0.000000    0.000000    0.000000    0.000000 -100.373044  109.197571  -43.179543  -15.093921
  0.046452906    0.000000    0.000000    0.000000    0.000000 -102.582042   90.827332  -43.072572  -15.181958
  0.046653307    0.000000    0.000000    0.000000    0.000000 -101.538000   86.636452  -43.238277  -15.087799
  0.046853707    0.000000    0.000000    0.000000    0.000000 -102.227278   82.076775  -43.089250  -15.399705
  0.047054108    0.000000    0.000000    0.000000    0.000000 -100.918519   94.972534  -43.119174  -14.977742
  0.047254509    0.000000    0.000000    0.000000    0.000000 -102.234659   88.906311  -43.119960  -15.164558
  0.047454910    0.000000    0.000000    0.000000    0.000000 -102.029536   86.449165  -43.255917  -15.373285
  0.047655311    0.000000    0.000000    0.000000    0.000000 -102.940290   83.940071  -43.251972  -15.477015
  0.047855711    0.000000    0.000000    0.000000    0.000000 -100.590873   75.850533  -43.353632  -14.818664
  0.048056112    0.000000    0.000000    0.000000    0.000000 -103.617413   85.525917  -43.175400  -14.640882
  0.048256513    0.000000    0.000000    0.000000    0.000000 -100.853839   87.599548  -43.190280  -15.866569
  0.048456914    0.000000    0.000000    0.000000    0.000000 -104.031914   81.004257  -43.218245  -15.453512
  0.048657315    0.000000    0.000000    0.000000    0.000000  -99.892842   80.902481  -43.110334  -15.228132
  0.048857715    0.000000    0.000000    0.000000    0.000000 -102.459575   74.727036  -43.209411  -14.881574
  0.049058116    0.000000    0.000000    0.000000    0.000000 -102.599153   97.592918  -43.043605  -15.337501
  0.049258517    0.000000    0.000000    0.000000    0.000000 -100.901856   79.104889  -43.135740  -15.750223
  0.049458918    0.000000    0.000000    0.000000    0.000000 -101.584733   85.963417  -43.178057  -15.322412
  0.049659319    0.000000    0.000000    0.000000    0.000000 -100.750031   81.517273  -43.229885  -15.176270
  0.049859719    0.000000    0.000000    0.000000    0.000000 -101.323547   94.007759  -43.193716  -14.602856
  0.050060120    0.000000    0.000000    0.000000    0.000000 -103.369199   84.592308  -43.246740  -14.843851
  0.050260521    0.000000    0.000000    0.000000    0.000000 -101.427431   90.183495  -43.108509  -15.059899
  0.050460922    0.000000    0.000000    0.000000    0.000000 -100.550407   86.089691  -43.095195  -15.587383
  0.050661323    0.000000    0.000000    0.000000    0.000000 -102.132294   82.434807  -43.240121  -15.635189
  0.050861723    0.000000    0.000000    0.000000    0.000000 -101.295020   75.325668  -43.167988  -16.327265
  0.051062124    0.000000    0.000000    0.000000    0.000000 -101.108590   79.840416  -43.271660  -15.708274
  0.051262525    0.000000    0.000000    0.000000    0.000000 -100.785955   73.859344  -43.240485  -16.295321
  0.051462926    0.000000    0.000000    0.000000    0.000000 -100.294156   78.456886  -43.135960  -15.609404
  0.051663327    0.000000    0.000000    0.000000    0.000000 -100.280534   71.494148  -43.148198  -15.595303
  0.051863727    0.000000    0.000000    0.000000    0.000000  -99.772535   82.559418  -43.211875  -15.802969
  0.052064128    0.000000    0.000000    0.000000    0.000000 -100.652526   78.833382  -43.222442  -16.017328
  0.052264529    0.000000    0.000000    0.000000    0.000000 -101.564402   63.180302  -43.268547  -15.886323
  0.052464930    0.000000    0.000000    0.000000    0.000000 -100.445180   70.064499  -43.114779  -15.715367
  0.052665331    0.000000    0.000000    0.000000    0.000000 -102.218012   67.624565  -43.257604  -14.939724
  0.052865731    0.000000    0.000000    0.000000    0.000000 -101.529353   78.217834  -43.251151  -16.053932
