!CSV A.01.01
!Agilent Technologies,N5224A,MY51441013,A.09.40.06
!Agilent N5224A: A.09.40.06
!Date: Monday, July 02, 2018 12:06:17
!Source: Standard

BEGIN CH1_DATA
Freq(Hz),S11(DB),S11(DEG)
10000000,0.0014033958,-17.918617
10500000,0.0033758187,-18.78511
11000000,0.00053416769,-19.678047
11500000,0.0009538157,-20.541414
12000000,-0.0027683976,-21.470901
12500000,-0.00069475325,-22.291348
13000000,-0.001999428,-23.220375
13500000,-0.0071660238,-24.009989
14000000,-0.0027854608,-24.912542
14500000,0.0040248847,-25.772053
15000000,0.0043060556,-26.638964
15500000,-0.0043906807,-27.499584
16000000,-0.0014334248,-28.334225
16500000,-0.0033582263,-29.244593
17000000,0.0019869318,-30.10173
17500000,0.0050652861,-30.916571
18000000,0.002155409,-31.79167
18500000,-0.0014787221,-32.662987
19000000,-0.00022238554,-33.491352
19500000,-0.0012873218,-34.286678
20000000,-0.0024073496,-35.159882
20500000,0.00082142401,-35.994736
21000000,0.0023321267,-36.840424
21500000,0.00077060587,-37.661442
22000000,-0.0043276818,-38.518574
22500000,-0.0022792362,-39.327923
23000000,-0.0058453158,-40.146694
23500000,-0.0047934446,-40.961246
24000000,-0.0037636701,-41.764473
24500000,-0.0036862341,-42.569805
25000000,-0.002317149,-43.392105
25500000,-0.0068069361,-44.199005
26000000,-0.0037429626,-44.981396
26500000,-0.0052802204,-45.737858
27000000,-0.0029849354,-46.547905
27500000,-0.0050727124,-47.331318
28000000,-0.0052779457,-48.103203
28500000,-0.0054086843,-48.870495
29000000,-0.0075579961,-49.628185
29500000,-0.0070384559,-50.419655
30000000,-0.0048749619,-51.213116
30500000,-0.010889527,-51.979683
31000000,-0.010564485,-52.718117
31500000,-0.0075511369,-53.472866
32000000,-0.0041815322,-54.243786
32500000,-0.0048552002,-54.947926
33000000,-0.0084950058,-55.714367
33500000,-0.0071604629,-56.453789
34000000,-0.010880362,-57.209064
34500000,-0.008762842,-57.926876
35000000,-0.010503602,-58.670261
35500000,-0.010824103,-59.371037
36000000,-0.0083343852,-60.099949
36500000,-0.011630396,-60.829639
37000000,-0.010926067,-61.513832
37500000,-0.013638247,-62.209732
38000000,-0.011932326,-62.94796
38500000,-0.010504468,-63.640785
39000000,-0.0087071052,-64.338219
39500000,-0.013047994,-65.037682
40000000,-0.014441219,-65.722092
40500000,-0.014068282,-66.403343
41000000,-0.011440726,-67.105644
41500000,-0.012322502,-67.766716
42000000,-0.012952306,-68.453308
42500000,-0.013472532,-69.101006
43000000,-0.014142181,-69.788872
43500000,-0.010161849,-70.448959
44000000,-0.015680812,-71.119125
44500000,-0.013283847,-71.762299
45000000,-0.017803276,-72.42823
45500000,-0.01227597,-73.064568
46000000,-0.017556392,-73.721535
46500000,-0.017133523,-74.330078
47000000,-0.013531931,-74.980873
47500000,-0.014735111,-75.618462
48000000,-0.012938546,-76.241814
48500000,-0.013618627,-76.866188
49000000,-0.017895792,-77.484505
49500000,-0.01788363,-78.097275
50000000,-0.016314702,-78.733047
50500000,-0.018139048,-79.322899
51000000,-0.016177701,-79.916763
51500000,-0.016370503,-80.54155
52000000,-0.016058804,-81.123886
52500000,-0.019189721,-81.715858
53000000,-0.017738432,-82.306488
53500000,-0.030380299,-82.861954
54000000,-0.020565206,-83.473808
54500000,-0.0151417,-84.031166
55000000,-0.021235475,-84.599754
55500000,-0.02714536,-85.218674
56000000,-0.018768232,-85.709152
56500000,-0.020090347,-86.305466
57000000,-0.023873582,-86.87326
57500000,-0.016713327,-87.428009
58000000,-0.018375516,-88.016869
58500000,-0.015212323,-88.512955
59000000,-0.020910714,-89.057053
59500000,-0.02541044,-89.648254
60000000,-0.023758925,-90.140343
60500000,-0.024238106,-90.691422
61000000,-0.026223822,-91.218887
61500000,-0.023725461,-91.724472
62000000,-0.028682269,-92.259071
62500000,-0.028837057,-92.795853
63000000,-0.025770623,-93.319954
63500000,-0.031819459,-93.790802
64000000,-0.027937526,-94.336761
64500000,-0.02371875,-94.850403
65000000,-0.030120878,-95.330536
65500000,-0.025779137,-95.869316
66000000,-0.020330925,-96.353661
66500000,-0.033827104,-96.886665
67000000,-0.031197868,-97.3508
67500000,-0.031935044,-97.816208
68000000,-0.033448882,-98.324768
68500000,-0.033424668,-98.813889
69000000,-0.028824039,-99.239899
69500000,-0.037130263,-99.756233
70000000,-0.031648729,-100.24326
70500000,-0.030867813,-100.72703
71000000,-0.032121364,-101.22103
71500000,-0.037297994,-101.66575
72000000,-0.039250799,-102.10355
72500000,-0.039297245,-102.5543
73000000,-0.035740141,-103.04321
73500000,-0.036682915,-103.48399
74000000,-0.035313077,-103.94505
74500000,-0.030613132,-104.42535
75000000,-0.040237367,-104.81731
75500000,-0.031334348,-105.29359
76000000,-0.037293691,-105.70802
76500000,-0.039489307,-106.15446
77000000,-0.034878835,-106.57448
77500000,-0.036928296,-107.02235
78000000,-0.037061948,-107.44314
78500000,-0.035130735,-107.87228
79000000,-0.04143218,-108.29957
79500000,-0.035653174,-108.72858
80000000,-0.035855792,-109.12558
80500000,-0.03902407,-109.54389
81000000,-0.038711399,-109.96552
81500000,-0.038854025,-110.38712
82000000,-0.041611549,-110.80347
82500000,-0.041739885,-111.19907
83000000,-0.044923767,-111.59003
83500000,-0.041213837,-111.99389
84000000,-0.042551544,-112.418
84500000,-0.044846963,-112.81541
85000000,-0.044224922,-113.22053
85500000,-0.044232965,-113.56687
86000000,-0.046897504,-113.9636
86500000,-0.040915139,-114.3806
87000000,-0.044274274,-114.74371
87500000,-0.043017887,-115.1162
88000000,-0.047991622,-115.5006
88500000,-0.047471009,-115.87461
89000000,-0.047077976,-116.25687
89500000,-0.047915611,-116.64485
90000000,-0.04356714,-117.00481
90500000,-0.05000956,-117.37872
91000000,-0.049393952,-117.73375
91500000,-0.045264814,-118.13847
92000000,-0.049565654,-118.47552
92500000,-0.048460834,-118.79628
93000000,-0.049915567,-119.18601
93500000,-0.050320331,-119.5283
94000000,-0.050329313,-119.88631
94500000,-0.048618682,-120.25146
95000000,-0.045992818,-120.58984
95500000,-0.051177479,-120.94022
96000000,-0.051496569,-121.27831
96500000,-0.053882699,-121.64784
97000000,-0.050308622,-121.98071
97500000,-0.053616866,-122.32736
98000000,-0.055391159,-122.65276
98500000,-0.048853919,-123.01433
99000000,-0.055774286,-123.34591
99500000,-0.053165961,-123.65254
100000000,-0.0533741,-124.00932
100500000,-0.054025777,-124.32608
101000000,-0.054884225,-124.65818
101500000,-0.057082962,-124.98318
102000000,-0.056740541,-125.31438
102500000,-0.057452802,-125.64503
103000000,-0.057528291,-125.96205
103500000,-0.056824286,-126.27827
104000000,-0.055627801,-126.60353
104500000,-0.060555071,-126.91307
105000000,-0.05651322,-127.20866
105500000,-0.058750585,-127.52839
106000000,-0.059808787,-127.84171
106500000,-0.059533004,-128.15166
107000000,-0.05803512,-128.45892
107500000,-0.060562618,-128.78224
108000000,-0.060566898,-129.06754
108500000,-0.060231358,-129.38962
109000000,-0.058616564,-129.69
109500000,-0.062842965,-129.98032
110000000,-0.06025568,-130.28638
END

